<Qucs Dataset 0.0.19>
<indep time 21>
  +0.00000000000000000000e+00
  +1.49999999999999994449e-01
  +2.99999999999999988898e-01
  +4.49999999999999955591e-01
  +5.99999999999999977796e-01
  +7.50000000000000000000e-01
  +8.99999999999999911182e-01
  +1.05000000000000004441e+00
  +1.19999999999999995559e+00
  +1.34999999999999986677e+00
  +1.50000000000000000000e+00
  +1.64999999999999991118e+00
  +1.79999999999999982236e+00
  +1.94999999999999995559e+00
  +2.10000000000000008882e+00
  +2.25000000000000000000e+00
  +2.39999999999999991118e+00
  +2.54999999999999982236e+00
  +2.69999999999999973355e+00
  +2.85000000000000008882e+00
  +3.00000000000000000000e+00
</indep>
<dep vo.Vt time>
  +0.00000000000000000000e+00
  -8.46164907708865891224e-10
  -4.86337426107603426214e-10
  +6.01126534182513471822e-10
  +2.55929812691594061689e-10
  -4.56541727231616855701e-10
  -5.63172949436809468018e-10
  +3.79171658384084109825e-10
  -2.55906438522596707308e-10
  -9.48532972009233729694e-10
  +5.94097795281151189800e-10
  +2.48560740546208406087e-10
  +2.88479322482136881306e-10
  +2.90388361861373721562e-10
  -6.51094759702666289228e-10
  +1.99510369643398397930e-07
  -3.02465742468289125629e-06
  +3.63510127913272894607e-10
  -8.90709787188884398040e-10
  +1.92885974452286391867e-10
  -8.84370864607973303904e-10
</dep>
<dep V2.It time>
  +0.00000000000000000000e+00
  -8.46164907708865914743e-04
  -4.86337426107603400770e-04
  +6.01126534182513439820e-04
  +2.55929812691594097112e-04
  -4.56541727231616863755e-04
  -5.63172949436809467012e-04
  +3.79171658384084100425e-04
  -2.55906438522596733649e-04
  -9.48532972009233713018e-04
  +5.94097795281151182765e-04
  +2.48560740546208440091e-04
  +2.88479322482136874093e-04
  +2.90388361861373749898e-04
  -6.51094759702666291828e-04
  +1.99510369643398410844e-01
  -3.02465742468289144895e+00
  +3.63510127913272904077e-04
  -8.90709787188884443039e-04
  +1.92885974452286393203e-04
  -8.84370864607973315372e-04
</dep>
<dep _net1.Vt time>
  +0.00000000000000000000e+00
  +0.00000000000000000000e+00
  +0.00000000000000000000e+00
  +0.00000000000000000000e+00
  +0.00000000000000000000e+00
  +0.00000000000000000000e+00
  +0.00000000000000000000e+00
  +0.00000000000000000000e+00
  +0.00000000000000000000e+00
  +0.00000000000000000000e+00
  +0.00000000000000000000e+00
  +0.00000000000000000000e+00
  +0.00000000000000000000e+00
  +0.00000000000000000000e+00
  +0.00000000000000000000e+00
  +0.00000000000000000000e+00
  +0.00000000000000000000e+00
  +0.00000000000000000000e+00
  +0.00000000000000000000e+00
  +0.00000000000000000000e+00
  +0.00000000000000000000e+00
</dep>
<dep _net0.Vt time>
  +0.00000000000000000000e+00
  -8.46164907708865891224e-10
  -4.86337426107603426214e-10
  +6.01126534182513471822e-10
  +2.55929812691594061689e-10
  -4.56541727231616855701e-10
  -5.63172949436809468018e-10
  +3.79171658384084109825e-10
  -2.55906438522596707308e-10
  -9.48532972009233729694e-10
  +5.94097795281151189800e-10
  +2.48560740546208406087e-10
  +2.88479322482136881306e-10
  +2.90388361861373721562e-10
  -6.51094759702666289228e-10
  +1.99510369643398397930e-07
  -3.02465742468289125629e-06
  +3.63510127913272894607e-10
  -8.90709787188884398040e-10
  +1.92885974452286391867e-10
  -8.84370864607973303904e-10
</dep>
