<Qucs Dataset 0.0.19>
<indep time 41>
  +0.00000000000000000000e+00
  +6.25000000000000013010e-05
  +1.25000000000000002602e-04
  +1.87500000000000003903e-04
  +2.50000000000000005204e-04
  +3.12500000000000006505e-04
  +3.75000000000000007806e-04
  +4.37500000000000009107e-04
  +5.00000000000000010408e-04
  +5.62500000000000065919e-04
  +6.25000000000000013010e-04
  +6.87499999999999960101e-04
  +7.50000000000000015613e-04
  +8.12500000000000071124e-04
  +8.75000000000000018215e-04
  +9.37499999999999965306e-04
  +1.00000000000000002082e-03
  +1.06250000000000007633e-03
  +1.12500000000000013184e-03
  +1.18749999999999997051e-03
  +1.25000000000000002602e-03
  +1.31250000000000008153e-03
  +1.37499999999999992020e-03
  +1.43749999999999997571e-03
  +1.50000000000000003123e-03
  +1.56250000000000008674e-03
  +1.62500000000000014225e-03
  +1.68749999999999998092e-03
  +1.75000000000000003643e-03
  +1.81250000000000009194e-03
  +1.87499999999999993061e-03
  +1.93749999999999998612e-03
  +2.00000000000000004163e-03
  +2.06250000000000009714e-03
  +2.12500000000000015266e-03
  +2.18750000000000020817e-03
  +2.25000000000000026368e-03
  +2.31249999999999988551e-03
  +2.37499999999999994102e-03
  +2.43749999999999999653e-03
  +2.50000000000000005204e-03
</indep>
<dep vo.Vt time>
  +0.00000000000000000000e+00
  +9.64091274354572647098e-03
  -4.10219059083850257075e-01
  -7.90436148889001218010e-04
  +3.36321701245125836977e-02
  -1.43141280247714086649e+00
  -2.75154132073976214964e-03
  +1.17409087012140922468e-01
  +2.25813618381032199522e-04
  -9.62054148834680551705e-03
  +4.10253001991540244831e-01
  +7.88286526558934497189e-04
  -3.36542024450339968822e-02
  +1.43209980431659911204e+00
  +2.75837141409329689168e-03
  -1.17323813678456595477e-01
  -2.25396175682683212521e-04
  +9.64148764259498136653e-03
  -4.09797043243459446771e-01
  -7.87303468655425604632e-04
  +3.36587613566639021201e-02
  -1.43141924712217627480e+00
  -2.75003994206363079275e-03
  +1.17464930807483547426e-01
  +2.26077880513209095170e-04
  -9.63955271715965893164e-03
  +4.10244575156577084840e-01
  +7.90488530350685891790e-04
  -3.36026236810380851683e-02
  +1.43213971074957457930e+00
  +2.75936953435351739472e-03
  -1.17447888246147782998e-01
  -2.26044790897535430524e-04
  +9.63137768351618461793e-03
  -4.09753633486429125199e-01
  -7.86683947254227574492e-04
  +3.36648010564344346562e-02
  -1.43210404426561344060e+00
  -2.75068063679520351250e-03
  +1.17462474322961085704e-01
  +2.26056110111727548428e-04
</dep>
<dep V2.It time>
  +0.00000000000000000000e+00
  -4.99035908725645460660e-02
  -4.10219059083850260544e-03
  -7.90436148889001238339e-06
  -4.96636782987548777712e-02
  -1.43141280247714077628e-02
  -2.75154132073976194636e-05
  -4.88259091298785877222e-02
  -4.99977418638161905107e-02
  -9.62054148834680530021e-05
  -4.58974699800845931108e-02
  -4.99921171347344067692e-02
  -3.36542024450339977495e-04
  -3.56790019568340097122e-02
  -4.99724162858590711944e-02
  -1.17323813678456593743e-03
  -2.25396175682683217603e-06
  -4.99035851235740540721e-02
  -4.09797043243459446771e-03
  -7.87303468655425652066e-06
  -4.96634123864333615339e-02
  -1.43141924712217628868e-02
  -2.75003994206363099604e-05
  -4.88253506919251664686e-02
  -4.99977392192716280084e-02
  -9.63955271715965925691e-05
  -4.58975542484342247107e-02
  -4.99920951146964956391e-02
  -3.36026236810380886377e-04
  -3.56786028925042547622e-02
  -4.99724063046564637158e-02
  -1.17447888246147787335e-03
  -2.26044790897535433912e-06
  -4.99036862231648364885e-02
  -4.09753633486429139077e-03
  -7.86683947254227540610e-06
  -4.96633519894356598168e-02
  -1.43210404426561341285e-02
  -2.75068063679520359382e-05
  -4.88253752567703869225e-02
  -4.99977394388988818918e-02
</dep>
<dep _net1.Vt time>
  +0.00000000000000000000e+00
  +5.00000000000000000000e+00
  +0.00000000000000000000e+00
  +0.00000000000000000000e+00
  +5.00000000000000000000e+00
  +0.00000000000000000000e+00
  +0.00000000000000000000e+00
  +5.00000000000000000000e+00
  +5.00000000000000000000e+00
  +0.00000000000000000000e+00
  +5.00000000000000000000e+00
  +5.00000000000000000000e+00
  +0.00000000000000000000e+00
  +5.00000000000000000000e+00
  +5.00000000000000000000e+00
  +0.00000000000000000000e+00
  +0.00000000000000000000e+00
  +5.00000000000000000000e+00
  +0.00000000000000000000e+00
  +0.00000000000000000000e+00
  +5.00000000000000000000e+00
  +0.00000000000000000000e+00
  +0.00000000000000000000e+00
  +5.00000000000000000000e+00
  +4.99999999980767562135e+00
  +0.00000000000000000000e+00
  +5.00000000000000000000e+00
  +5.00000000000000000000e+00
  +0.00000000000000000000e+00
  +5.00000000000000000000e+00
  +5.00000000000000000000e+00
  +0.00000000000000000000e+00
  +0.00000000000000000000e+00
  +5.00000000000000000000e+00
  +0.00000000000000000000e+00
  +0.00000000000000000000e+00
  +5.00000000000000000000e+00
  +0.00000000000000000000e+00
  +0.00000000000000000000e+00
  +5.00000000000000000000e+00
  +5.00000000000000000000e+00
</dep>
<dep _net0.Vt time>
  +0.00000000000000000000e+00
  +9.64091274354572647098e-03
  -4.10219059083850257075e-01
  -7.90436148889001218010e-04
  +3.36321701245125836977e-02
  -1.43141280247714086649e+00
  -2.75154132073976214964e-03
  +1.17409087012140922468e-01
  +2.25813618381032199522e-04
  -9.62054148834680551705e-03
  +4.10253001991540244831e-01
  +7.88286526558934497189e-04
  -3.36542024450339968822e-02
  +1.43209980431659911204e+00
  +2.75837141409329689168e-03
  -1.17323813678456595477e-01
  -2.25396175682683212521e-04
  +9.64148764259498136653e-03
  -4.09797043243459446771e-01
  -7.87303468655425604632e-04
  +3.36587613566639021201e-02
  -1.43141924712217627480e+00
  -2.75003994206363079275e-03
  +1.17464930807483547426e-01
  +2.26077880513209095170e-04
  -9.63955271715965893164e-03
  +4.10244575156577084840e-01
  +7.90488530350685891790e-04
  -3.36026236810380851683e-02
  +1.43213971074957457930e+00
  +2.75936953435351739472e-03
  -1.17447888246147782998e-01
  -2.26044790897535430524e-04
  +9.63137768351618461793e-03
  -4.09753633486429125199e-01
  -7.86683947254227574492e-04
  +3.36648010564344346562e-02
  -1.43210404426561344060e+00
  -2.75068063679520351250e-03
  +1.17462474322961085704e-01
  +2.26056110111727548428e-04
</dep>
