<Qucs Dataset 0.0.20>
<indep acfrequency 50>
  +1.00000000000000000000e+01
  +4.17959183673469397036e+02
  +8.25918367346938794071e+02
  +1.23387755102040819111e+03
  +1.64183673469387758814e+03
  +2.04979591836734698518e+03
  +2.45775510204081638221e+03
  +2.86571428571428577925e+03
  +3.27367346938775517629e+03
  +3.68163265306122457332e+03
  +4.08959183673469397036e+03
  +4.49755102040816382214e+03
  +4.90551020408163276443e+03
  +5.31346938775510170672e+03
  +5.72142857142857155850e+03
  +6.12938775510204141028e+03
  +6.53734693877551035257e+03
  +6.94530612244897929486e+03
  +7.35326530612244914664e+03
  +7.76122448979591899842e+03
  +8.16918367346938794071e+03
  +8.57714285714285688300e+03
  +8.98510204081632764428e+03
  +9.39306122448979658657e+03
  +9.80102040816326552886e+03
  +1.02089795918367344711e+04
  +1.06169387755102034134e+04
  +1.10248979591836741747e+04
  +1.14328571428571431170e+04
  +1.18408163265306120593e+04
  +1.22487755102040828206e+04
  +1.26567346938775517629e+04
  +1.30646938775510207051e+04
  +1.34726530612244896474e+04
  +1.38806122448979585897e+04
  +1.42885714285714293510e+04
  +1.46965306122448982933e+04
  +1.51044897959183672356e+04
  +1.55124489795918379968e+04
  +1.59204081632653069391e+04
  +1.63283673469387758814e+04
  +1.67363265306122448237e+04
  +1.71442857142857137660e+04
  +1.75522448979591827083e+04
  +1.79602040816326552886e+04
  +1.83681632653061242308e+04
  +1.87761224489795931731e+04
  +1.91840816326530621154e+04
  +1.95920408163265310577e+04
  +2.00000000000000000000e+04
</indep>
<dep A_dB acfrequency>
  -1.54307056158712369747e-05
  -2.68726179811069713910e-02
  -1.04004043975609569705e-01
  -2.28792014585731673382e-01
  -3.97222638238073300077e-01
  -6.04286895575101734579e-01
  -8.44420656548364734206e-01
  -1.11191380551098428775e+00
  -1.40124166357558044282e+00
  -1.70729888295774046014e+00
  -2.02553811324637100810e+00
  -2.35202919959730039068e+00
  -2.68345987298378885200e+00
  -3.01709832854339410346e+00
  -3.35073452443254726774e+00
  -3.68261256474132769867e+00
  -4.01136237740888113024e+00
  -4.33593558372718401728e+00
  -4.65554806940958609829e+00
  -4.96963018750363438869e+00
  -5.27778456140972807020e+00
  -5.57975092784018578129e+00
  -5.87537721497351661526e+00
  -6.16459598030934419199e+00
  -6.44740536050306900506e+00
  -6.72385376307891746706e+00
  -6.99402762757991514064e+00
  -7.25804168424118678615e+00
  -7.51603123256578875555e+00
  -7.76814604606703085210e+00
  -8.01454558161316477083e+00
  -8.25539523252862572633e+00
  -8.49086341489917195702e+00
  -8.72111931772871429303e+00
  -8.94633118108185421136e+00
  -9.16666499340839280308e+00
  -9.38228352102935936330e+00
  -9.59334560024853288951e+00
  -9.80000563656117051892e+00
  -1.00024132666400937808e+01
  -1.02007131477417232190e+01
  -1.03950448463386102560e+01
  -1.05855428035113980911e+01
  -1.07723363592104526276e+01
  -1.09555498211578097312e+01
  -1.11353025670872547437e+01
  -1.13117091713626738425e+01
  -1.14848795488888768546e+01
  -1.16549191107291338909e+01
  -1.18219289270442153850e+01
</dep>
<dep Vout acfrequency>
  +9.99996446955039641757e-01-j1.88494889482190884980e-03
  +9.93831455119091877748e-01-j7.82974708081959069883e-02
  +9.76336657456776335628e-01-j1.51997989338365308010e-01
  +9.48682301564341745603e-01-j2.20644946153147059054e-01
  +9.12594267017497684513e-01-j2.82428700425955081510e-01
  +8.70104291035652677166e-01-j3.36188657983872207780e-01
  +8.23299656749263975009e-01-j3.81414907870429420456e-01
  +7.74120590904290084566e-01-j4.18160138753424004410e-01
  +7.24228870828354742706e-01-j4.46902017770160642218e-01
  +6.74947684391528079928e-01-j4.68394393354619797964e-01
  +6.27257970673435583109e-01-j4.83534289270243000658e-01
  +5.81831299117929523490e-01-j4.93258186434520184971e-01
  +5.39080984341119950898e-01-j4.98470336793403523412e-01
  +4.99217920796348579859e-01-j4.99999388351745066572e-01
  +4.62302825278373519247e-01-j4.98576897798130191930e-01
  +4.28290798020336760388e-01-j4.94831072540356797784e-01
  +3.97066970422212339731e-01-j4.89290089233307745609e-01
  +3.68473654454109122991e-01-j4.82390734184792224770e-01
  +3.42330183637318041789e-01-j4.74489440354743940986e-01
  +3.18446867556777590824e-01-j4.65873867157252929960e-01
  +2.96634420577714941203e-01-j4.56773949679968371829e-01
  +2.76710033678868427831e-01-j4.47371870975710683727e-01
  +2.58501030368102902024e-01-j4.37810744119798977980e-01
  +2.41846831508598675287e-01-j4.28201986914878929280e-01
  +2.26599769599990868985e-01-j4.18631477575709620709e-01
  +2.12625145442431995324e-01-j4.09164628197522250996e-01
  +1.99800806642636136212e-01-j3.99850527456933668713e-01
  +1.88016442730113669812e-01-j3.90725299914438051196e-01
  +1.77172729840697901205e-01-j3.81814815900971771256e-01
  +1.67180413624506613024e-01-j3.73136868889748674061e-01
  +1.57959387784448429537e-01-j3.64702919641741674095e-01
  +1.49437803932892854242e-01-j3.56519489914095877303e-01
  +1.41551233591641623111e-01-j3.48589273874464089520e-01
  +1.34241893165272629940e-01-j3.40912022792796420845e-01
  +1.27457936138669569726e-01-j3.33485248030464420665e-01
  +1.21152812540842411138e-01-j3.26304778626188562995e-01
  +1.15284693134446253326e-01-j3.19365202649479040797e-01
  +1.09815954308377677906e-01-j3.12660215709830879849e-01
  +1.04712718901906073898e-01-j3.06182895345374350704e-01
  +9.99444479179770195465e-02-j2.99925916266580383507e-01
  +9.54835781152756080115e-02-j2.93881718426954319234e-01
  +9.13052006840227442508e-02-j2.88042637489787423100e-01
  +8.73867765290881892692e-02-j2.82401005339824151541e-01
  +8.37078840527928774717e-02-j2.76949226755008381939e-01
  +8.02499957143978231988e-02-j2.71679837128626366916e-01
  +7.69962800222109555737e-02-j2.66585545153806557916e-01
  +7.39314259746129132100e-02-j2.61659263600533043004e-01
  +7.10414873010419140043e-02-j2.56894130690247191051e-01
  +6.83137441598231504036e-02-j2.52283524072994869147e-01
  +6.57365802258702142113e-02-j2.47821069011651934355e-01
</dep>
<dep y acfrequency>
  -2.00000000000000000000e+02
  -8.35918367346938794071e+03
  -1.65183673469387758814e+04
  -2.46775510204081656411e+04
  -3.28367346938775517629e+04
  -4.09959183673469378846e+04
  -4.91551020408163312823e+04
  -5.73142857142857174040e+04
  -6.54734693877551035257e+04
  -7.36326530612244969234e+04
  -8.17918367346938757692e+04
  -8.99510204081632837187e+04
  -9.81102040816326625645e+04
  -1.06269387755102041410e+05
  -1.14428571428571434808e+05
  -1.22587755102040828206e+05
  -1.30746938775510207051e+05
  -1.38906122448979585897e+05
  -1.47065306122448993847e+05
  -1.55224489795918372693e+05
  -1.63383673469387751538e+05
  -1.71542857142857130384e+05
  -1.79702040816326567437e+05
  -1.87861224489795917179e+05
  -1.96020408163265325129e+05
  -2.04179591836734674871e+05
  -2.12338775510204082821e+05
  -2.20497959183673490770e+05
  -2.28657142857142869616e+05
  -2.36816326530612248462e+05
  -2.44975510204081656411e+05
  -2.53134693877551035257e+05
  -2.61293877551020414103e+05
  -2.69453061224489822052e+05
  -2.77612244897959171794e+05
  -2.85771428571428579744e+05
  -2.93930612244897987694e+05
  -3.02089795918367337435e+05
  -3.10248979591836745385e+05
  -3.18408163265306153335e+05
  -3.26567346938775503077e+05
  -3.34726530612244911026e+05
  -3.42885714285714260768e+05
  -3.51044897959183668718e+05
  -3.59204081632653134875e+05
  -3.67363265306122484617e+05
  -3.75522448979591834359e+05
  -3.83681632653061242308e+05
  -3.91840816326530650258e+05
  -4.00000000000000000000e+05
</dep>
<dep vout.v acfrequency>
  +9.99996446955039641757e-01-j1.88494889482190884980e-03
  +9.93831455119091877748e-01-j7.82974708081959069883e-02
  +9.76336657456776335628e-01-j1.51997989338365308010e-01
  +9.48682301564341745603e-01-j2.20644946153147059054e-01
  +9.12594267017497684513e-01-j2.82428700425955081510e-01
  +8.70104291035652677166e-01-j3.36188657983872207780e-01
  +8.23299656749263975009e-01-j3.81414907870429420456e-01
  +7.74120590904290084566e-01-j4.18160138753424004410e-01
  +7.24228870828354742706e-01-j4.46902017770160642218e-01
  +6.74947684391528079928e-01-j4.68394393354619797964e-01
  +6.27257970673435583109e-01-j4.83534289270243000658e-01
  +5.81831299117929523490e-01-j4.93258186434520184971e-01
  +5.39080984341119950898e-01-j4.98470336793403523412e-01
  +4.99217920796348579859e-01-j4.99999388351745066572e-01
  +4.62302825278373519247e-01-j4.98576897798130191930e-01
  +4.28290798020336760388e-01-j4.94831072540356797784e-01
  +3.97066970422212339731e-01-j4.89290089233307745609e-01
  +3.68473654454109122991e-01-j4.82390734184792224770e-01
  +3.42330183637318041789e-01-j4.74489440354743940986e-01
  +3.18446867556777590824e-01-j4.65873867157252929960e-01
  +2.96634420577714941203e-01-j4.56773949679968371829e-01
  +2.76710033678868427831e-01-j4.47371870975710683727e-01
  +2.58501030368102902024e-01-j4.37810744119798977980e-01
  +2.41846831508598675287e-01-j4.28201986914878929280e-01
  +2.26599769599990868985e-01-j4.18631477575709620709e-01
  +2.12625145442431995324e-01-j4.09164628197522250996e-01
  +1.99800806642636136212e-01-j3.99850527456933668713e-01
  +1.88016442730113669812e-01-j3.90725299914438051196e-01
  +1.77172729840697901205e-01-j3.81814815900971771256e-01
  +1.67180413624506613024e-01-j3.73136868889748674061e-01
  +1.57959387784448429537e-01-j3.64702919641741674095e-01
  +1.49437803932892854242e-01-j3.56519489914095877303e-01
  +1.41551233591641623111e-01-j3.48589273874464089520e-01
  +1.34241893165272629940e-01-j3.40912022792796420845e-01
  +1.27457936138669569726e-01-j3.33485248030464420665e-01
  +1.21152812540842411138e-01-j3.26304778626188562995e-01
  +1.15284693134446253326e-01-j3.19365202649479040797e-01
  +1.09815954308377677906e-01-j3.12660215709830879849e-01
  +1.04712718901906073898e-01-j3.06182895345374350704e-01
  +9.99444479179770195465e-02-j2.99925916266580383507e-01
  +9.54835781152756080115e-02-j2.93881718426954319234e-01
  +9.13052006840227442508e-02-j2.88042637489787423100e-01
  +8.73867765290881892692e-02-j2.82401005339824151541e-01
  +8.37078840527928774717e-02-j2.76949226755008381939e-01
  +8.02499957143978231988e-02-j2.71679837128626366916e-01
  +7.69962800222109555737e-02-j2.66585545153806557916e-01
  +7.39314259746129132100e-02-j2.61659263600533043004e-01
  +7.10414873010419140043e-02-j2.56894130690247191051e-01
  +6.83137441598231504036e-02-j2.52283524072994869147e-01
  +6.57365802258702142113e-02-j2.47821069011651934355e-01
</dep>
<dep V1.i acfrequency>
  -3.55304496046059126169e-09-j1.88494889482190895653e-06
  -6.16854488090816041601e-06-j7.82974708081959089399e-05
  -2.36633425432236513611e-05-j1.51997989338365315816e-04
  -5.13176984356582092939e-05-j2.20644946153147051464e-04
  -8.74057329825023111500e-05-j2.82428700425955069801e-04
  -1.29895708964347287272e-04-j3.36188657983872208647e-04
  -1.76700343250736006777e-04-j3.81414907870429446043e-04
  -2.25879409095709900689e-04-j4.18160138753424000940e-04
  -2.75771129171645235610e-04-j4.46902017770160666504e-04
  -3.25052315608471910531e-04-j4.68394393354619833526e-04
  -3.72742029326564414289e-04-j4.83534289270242995020e-04
  -4.18168700882070492122e-04-j4.93258186434520165022e-04
  -4.60919015658880072521e-04-j4.98470336793403485248e-04
  -5.00782079203651413202e-04-j4.99999388351745070909e-04
  -5.37697174721626447794e-04-j4.98576897798130250911e-04
  -5.71709201979663243949e-04-j4.94831072540356797784e-04
  -6.02933029577787642922e-04-j4.89290089233307781171e-04
  -6.31526345545890821498e-04-j4.82390734184792247322e-04
  -6.57669816362681930455e-04-j4.74489440354743964839e-04
  -6.81553132443222403104e-04-j4.65873867157252962486e-04
  -7.03365579422285066603e-04-j4.56773949679968398717e-04
  -7.23289966321131625945e-04-j4.47371870975710672017e-04
  -7.41498969631897066751e-04-j4.37810744119798993159e-04
  -7.58153168491401295223e-04-j4.28201986914878937086e-04
  -7.73400230400009118005e-04-j4.18631477575709648031e-04
  -7.87374854557568019421e-04-j4.09164628197522268344e-04
  -8.00199193357363893278e-04-j3.99850527456933695601e-04
  -8.11983557269886331922e-04-j3.90725299914438035150e-04
  -8.22827270159302089254e-04-j3.81814815900971798578e-04
  -8.32819586375493350547e-04-j3.73136868889748657147e-04
  -8.42040612215551537503e-04-j3.64702919641741671059e-04
  -8.50562196067107230760e-04-j3.56519489914095910697e-04
  -8.58448766408358371685e-04-j3.48589273874464074775e-04
  -8.65758106834727371795e-04-j3.40912022792796423013e-04
  -8.72542063861330417264e-04-j3.33485248030464449288e-04
  -8.78847187459157663456e-04-j3.26304778626188560827e-04
  -8.84715306865553803052e-04-j3.19365202649479068553e-04
  -8.90184045691622388013e-04-j3.12660215709830888956e-04
  -8.95287281098093947786e-04-j3.06182895345374342030e-04
  -9.00055552082022975249e-04-j2.99925916266580389145e-04
  -9.04516421884724378111e-04-j2.93881718426954334413e-04
  -9.08694799315977268760e-04-j2.88042637489787430472e-04
  -9.12613223470911858436e-04-j2.82401005339824172791e-04
  -9.16292115947207105181e-04-j2.76949226755008400154e-04
  -9.19750004285602249660e-04-j2.71679837128626386431e-04
  -9.23003719977789124224e-04-j2.66585545153806547074e-04
  -9.26068574025387062504e-04-j2.61659263600533026524e-04
  -9.28958512698958068649e-04-j2.56894130690247222710e-04
  -9.31686255840176880821e-04-j2.52283524072994863510e-04
  -9.34263419774129799666e-04-j2.47821069011651927416e-04
</dep>
<dep _net0.v acfrequency>
  +1.00000000000000000000e+00
  +1.00000000000000000000e+00
  +1.00000000000000000000e+00
  +1.00000000000000000000e+00
  +1.00000000000000000000e+00
  +1.00000000000000000000e+00
  +1.00000000000000000000e+00
  +1.00000000000000000000e+00
  +1.00000000000000000000e+00
  +1.00000000000000000000e+00
  +1.00000000000000000000e+00
  +1.00000000000000000000e+00
  +1.00000000000000000000e+00
  +1.00000000000000000000e+00
  +1.00000000000000000000e+00
  +1.00000000000000000000e+00
  +1.00000000000000000000e+00
  +1.00000000000000000000e+00
  +1.00000000000000000000e+00
  +1.00000000000000000000e+00
  +1.00000000000000000000e+00
  +1.00000000000000000000e+00
  +1.00000000000000000000e+00
  +1.00000000000000000000e+00
  +1.00000000000000000000e+00
  +1.00000000000000000000e+00
  +1.00000000000000000000e+00
  +1.00000000000000000000e+00
  +1.00000000000000000000e+00
  +1.00000000000000000000e+00
  +1.00000000000000000000e+00
  +1.00000000000000000000e+00
  +1.00000000000000000000e+00
  +1.00000000000000000000e+00
  +1.00000000000000000000e+00
  +1.00000000000000000000e+00
  +1.00000000000000000000e+00
  +1.00000000000000000000e+00
  +1.00000000000000000000e+00
  +1.00000000000000000000e+00
  +1.00000000000000000000e+00
  +1.00000000000000000000e+00
  +1.00000000000000000000e+00
  +1.00000000000000000000e+00
  +1.00000000000000000000e+00
  +1.00000000000000000000e+00
  +1.00000000000000000000e+00
  +1.00000000000000000000e+00
  +1.00000000000000000000e+00
  +1.00000000000000000000e+00
</dep>
<dep _net1.v acfrequency>
  +9.99996446955039641757e-01-j1.88494889482190884980e-03
  +9.93831455119091877748e-01-j7.82974708081959069883e-02
  +9.76336657456776335628e-01-j1.51997989338365308010e-01
  +9.48682301564341745603e-01-j2.20644946153147059054e-01
  +9.12594267017497684513e-01-j2.82428700425955081510e-01
  +8.70104291035652677166e-01-j3.36188657983872207780e-01
  +8.23299656749263975009e-01-j3.81414907870429420456e-01
  +7.74120590904290084566e-01-j4.18160138753424004410e-01
  +7.24228870828354742706e-01-j4.46902017770160642218e-01
  +6.74947684391528079928e-01-j4.68394393354619797964e-01
  +6.27257970673435583109e-01-j4.83534289270243000658e-01
  +5.81831299117929523490e-01-j4.93258186434520184971e-01
  +5.39080984341119950898e-01-j4.98470336793403523412e-01
  +4.99217920796348579859e-01-j4.99999388351745066572e-01
  +4.62302825278373519247e-01-j4.98576897798130191930e-01
  +4.28290798020336760388e-01-j4.94831072540356797784e-01
  +3.97066970422212339731e-01-j4.89290089233307745609e-01
  +3.68473654454109122991e-01-j4.82390734184792224770e-01
  +3.42330183637318041789e-01-j4.74489440354743940986e-01
  +3.18446867556777590824e-01-j4.65873867157252929960e-01
  +2.96634420577714941203e-01-j4.56773949679968371829e-01
  +2.76710033678868427831e-01-j4.47371870975710683727e-01
  +2.58501030368102902024e-01-j4.37810744119798977980e-01
  +2.41846831508598675287e-01-j4.28201986914878929280e-01
  +2.26599769599990868985e-01-j4.18631477575709620709e-01
  +2.12625145442431995324e-01-j4.09164628197522250996e-01
  +1.99800806642636136212e-01-j3.99850527456933668713e-01
  +1.88016442730113669812e-01-j3.90725299914438051196e-01
  +1.77172729840697901205e-01-j3.81814815900971771256e-01
  +1.67180413624506613024e-01-j3.73136868889748674061e-01
  +1.57959387784448429537e-01-j3.64702919641741674095e-01
  +1.49437803932892854242e-01-j3.56519489914095877303e-01
  +1.41551233591641623111e-01-j3.48589273874464089520e-01
  +1.34241893165272629940e-01-j3.40912022792796420845e-01
  +1.27457936138669569726e-01-j3.33485248030464420665e-01
  +1.21152812540842411138e-01-j3.26304778626188562995e-01
  +1.15284693134446253326e-01-j3.19365202649479040797e-01
  +1.09815954308377677906e-01-j3.12660215709830879849e-01
  +1.04712718901906073898e-01-j3.06182895345374350704e-01
  +9.99444479179770195465e-02-j2.99925916266580383507e-01
  +9.54835781152756080115e-02-j2.93881718426954319234e-01
  +9.13052006840227442508e-02-j2.88042637489787423100e-01
  +8.73867765290881892692e-02-j2.82401005339824151541e-01
  +8.37078840527928774717e-02-j2.76949226755008381939e-01
  +8.02499957143978231988e-02-j2.71679837128626366916e-01
  +7.69962800222109555737e-02-j2.66585545153806557916e-01
  +7.39314259746129132100e-02-j2.61659263600533043004e-01
  +7.10414873010419140043e-02-j2.56894130690247191051e-01
  +6.83137441598231504036e-02-j2.52283524072994869147e-01
  +6.57365802258702142113e-02-j2.47821069011651934355e-01
</dep>
