<Qucs Dataset 0.0.19>
<indep time 41>
  +0.00000000000000000000e+00
  +1.25000000000000006939e-02
  +2.50000000000000013878e-02
  +3.75000000000000055511e-02
  +5.00000000000000027756e-02
  +6.25000000000000000000e-02
  +7.50000000000000111022e-02
  +8.75000000000000083267e-02
  +1.00000000000000005551e-01
  +1.12500000000000002776e-01
  +1.25000000000000000000e-01
  +1.37500000000000011102e-01
  +1.50000000000000022204e-01
  +1.62500000000000005551e-01
  +1.75000000000000016653e-01
  +1.87500000000000000000e-01
  +2.00000000000000011102e-01
  +2.12500000000000022204e-01
  +2.25000000000000005551e-01
  +2.37500000000000016653e-01
  +2.50000000000000000000e-01
  +2.62500000000000011102e-01
  +2.75000000000000022204e-01
  +2.87500000000000033307e-01
  +3.00000000000000044409e-01
  +3.12500000000000000000e-01
  +3.25000000000000011102e-01
  +3.37500000000000022204e-01
  +3.50000000000000033307e-01
  +3.62500000000000044409e-01
  +3.75000000000000000000e-01
  +3.87500000000000011102e-01
  +4.00000000000000022204e-01
  +4.12500000000000033307e-01
  +4.25000000000000044409e-01
  +4.37500000000000000000e-01
  +4.50000000000000011102e-01
  +4.62500000000000022204e-01
  +4.75000000000000033307e-01
  +4.87500000000000044409e-01
  +5.00000000000000000000e-01
</indep>
<dep vo.Vt time>
  +0.00000000000000000000e+00
  +2.37508369386456852368e+00
  -2.37509340480147113084e+00
  +2.37509786020756719083e+00
  -2.37508439962613016050e+00
  +2.37508945075118482748e+00
  -2.37511730395315723285e+00
  +2.37506490069761300177e+00
  -2.37510949421255945779e+00
  +2.37509433948682513460e+00
  -2.37509532838533621302e+00
  +2.37509201913108647375e+00
  -2.37509816430046427627e+00
  +2.37509029234891499982e+00
  -2.37509690583552801613e+00
  +2.37511247228194211090e+00
  -2.37509723414513640449e+00
  +2.37510269774637450269e+00
  -2.37508691872506494391e+00
  +2.37509675757911598026e+00
  -2.37510288899591071043e+00
  +2.37508698856791022891e+00
  -2.37510453640749430448e+00
  +2.37508965316692632896e+00
  -2.37510546062487781782e+00
  +2.37510539953650301470e+00
  -2.37509855610618192401e+00
  +2.37511370671619070905e+00
  -2.37511201843708219528e+00
  +2.37510913935717615786e+00
  -2.37507758082948150502e+00
  +2.37508506217581771836e+00
  -2.37507891716829577788e+00
  +2.37512335069935787146e+00
  -2.37508182330375383629e+00
  +2.37508337620426468462e+00
  -2.37509305600725406649e+00
  +2.37510008558713847648e+00
  -2.37508586414129707620e+00
  +2.37509921881260011034e+00
  -2.37510236728323276267e+00
</dep>
<dep V2.It time>
  +0.00000000000000000000e+00
  -2.62491630613543138265e-03
  -2.37509340480147098512e-03
  -2.62490212550547984474e-03
  -2.37508439962613032703e-03
  -2.62491054924881509619e-03
  -2.37511737334209632744e-03
  -2.62493508501543404421e-03
  -2.37510949421255957922e-03
  -2.62490564622622169974e-03
  -2.37509532838533609506e-03
  -2.62490789719302137356e-03
  -2.37509830307834233706e-03
  -2.62490970765108522222e-03
  -2.37509690583552783225e-03
  -2.62488752771805784747e-03
  -2.37509723414513649817e-03
  -2.62489721857773333769e-03
  -2.37508691872506498555e-03
  -2.62490315874499202317e-03
  -2.37510288899591076942e-03
  -2.62491301143208963578e-03
  -2.37510453640749422122e-03
  -2.62491012437930356163e-03
  -2.37510573818063399146e-03
  -2.62489460046349707897e-03
  -2.37509855610618190319e-03
  -2.62488629328380945055e-03
  -2.37511201843708212589e-03
  -2.62489063818905363559e-03
  -2.37507758082948147726e-03
  -2.62491493782418235450e-03
  -2.37507891716829582299e-03
  -2.62487664930064227772e-03
  -2.37508182330375397159e-03
  -2.62491662379573525987e-03
  -2.37509305600725395199e-03
  -2.62489991441286138474e-03
  -2.37508586414129701722e-03
  -2.62490055873362999883e-03
  -2.37510236728323293615e-03
</dep>
<dep _net1.Vt time>
  +0.00000000000000000000e+00
  +5.00000000000000000000e+00
  +0.00000000000000000000e+00
  +4.99999998571304704598e+00
  +0.00000000000000000000e+00
  +5.00000000000000000000e+00
  +6.93889390390722837765e-08
  +4.99999998571304704598e+00
  +0.00000000000000000000e+00
  +4.99999998571304704598e+00
  +0.00000000000000000000e+00
  +4.99999991632410800690e+00
  +1.38777878078144567553e-07
  +5.00000000000000000000e+00
  +0.00000000000000000000e+00
  +5.00000000000000000000e+00
  +0.00000000000000000000e+00
  +4.99999991632410800690e+00
  +0.00000000000000000000e+00
  +4.99999991632410800690e+00
  +0.00000000000000000000e+00
  +5.00000000000000000000e+00
  +0.00000000000000000000e+00
  +4.99999977754622992876e+00
  +2.77555756156289135106e-07
  +5.00000000000000000000e+00
  +0.00000000000000000000e+00
  +5.00000000000000000000e+00
  +0.00000000000000000000e+00
  +4.99999977754622992876e+00
  +0.00000000000000000000e+00
  +5.00000000000000000000e+00
  +0.00000000000000000000e+00
  +5.00000000000000000000e+00
  +0.00000000000000000000e+00
  +5.00000000000000000000e+00
  +0.00000000000000000000e+00
  +5.00000000000000000000e+00
  +0.00000000000000000000e+00
  +4.99999977754622992876e+00
  +0.00000000000000000000e+00
</dep>
<dep _net0.Vt time>
  +0.00000000000000000000e+00
  +2.37508369386456852368e+00
  -2.37509340480147113084e+00
  +2.37509786020756719083e+00
  -2.37508439962613016050e+00
  +2.37508945075118482748e+00
  -2.37511730395315723285e+00
  +2.37506490069761300177e+00
  -2.37510949421255945779e+00
  +2.37509433948682513460e+00
  -2.37509532838533621302e+00
  +2.37509201913108647375e+00
  -2.37509816430046427627e+00
  +2.37509029234891499982e+00
  -2.37509690583552801613e+00
  +2.37511247228194211090e+00
  -2.37509723414513640449e+00
  +2.37510269774637450269e+00
  -2.37508691872506494391e+00
  +2.37509675757911598026e+00
  -2.37510288899591071043e+00
  +2.37508698856791022891e+00
  -2.37510453640749430448e+00
  +2.37508965316692632896e+00
  -2.37510546062487781782e+00
  +2.37510539953650301470e+00
  -2.37509855610618192401e+00
  +2.37511370671619070905e+00
  -2.37511201843708219528e+00
  +2.37510913935717615786e+00
  -2.37507758082948150502e+00
  +2.37508506217581771836e+00
  -2.37507891716829577788e+00
  +2.37512335069935787146e+00
  -2.37508182330375383629e+00
  +2.37508337620426468462e+00
  -2.37509305600725406649e+00
  +2.37510008558713847648e+00
  -2.37508586414129707620e+00
  +2.37509921881260011034e+00
  -2.37510236728323276267e+00
</dep>
