<Qucs Dataset 0.0.19>
<indep time 260>
  +0.00000000000000000000e+00
  +1.54440154440154443500e-05
  +3.08880308880308887000e-05
  +4.63320463320463296619e-05
  +6.17760617760617774001e-05
  +7.72200772200772251382e-05
  +9.26640926640926593238e-05
  +1.08108108108108107062e-04
  +1.23552123552123554800e-04
  +1.38996138996138988986e-04
  +1.54440154440154450276e-04
  +1.69884169884169884462e-04
  +1.85328185328185318648e-04
  +2.00772200772200779938e-04
  +2.16216216216216214124e-04
  +2.31660231660231675415e-04
  +2.47104247104247109600e-04
  +2.62548262548262570891e-04
  +2.77992277992277977972e-04
  +2.93436293436293439262e-04
  +3.08880308880308900553e-04
  +3.24324324324324307633e-04
  +3.39768339768339768924e-04
  +3.55212355212355230215e-04
  +3.70656370656370637295e-04
  +3.86100386100386098586e-04
  +4.01544401544401559877e-04
  +4.16988416988417021167e-04
  +4.32432432432432428248e-04
  +4.47876447876447889539e-04
  +4.63320463320463350829e-04
  +4.78764478764478757910e-04
  +4.94208494208494219201e-04
  +5.09652509652509626281e-04
  +5.25096525096525141782e-04
  +5.40540540540540548863e-04
  +5.55984555984555955943e-04
  +5.71428571428571471444e-04
  +5.86872586872586878524e-04
  +6.02316602316602285605e-04
  +6.17760617760617801106e-04
  +6.33204633204633208186e-04
  +6.48648648648648615267e-04
  +6.64092664092664130768e-04
  +6.79536679536679537848e-04
  +6.94980694980694944929e-04
  +7.10424710424710460430e-04
  +7.25868725868725867510e-04
  +7.41312741312741274591e-04
  +7.56756756756756790092e-04
  +7.72200772200772197172e-04
  +7.87644787644787712673e-04
  +8.03088803088803119754e-04
  +8.18532818532818526834e-04
  +8.33976833976834042335e-04
  +8.49420849420849449415e-04
  +8.64864864864864856496e-04
  +8.80308880308880371997e-04
  +8.95752895752895779077e-04
  +9.11196911196911186158e-04
  +9.26640926640926701659e-04
  +9.42084942084942108739e-04
  +9.57528957528957515820e-04
  +9.72972972972973031321e-04
  +9.88416988416988438401e-04
  +1.00386100386100395390e-03
  +1.01930501930501925256e-03
  +1.03474903474903476806e-03
  +1.05019305019305028356e-03
  +1.06563706563706558222e-03
  +1.08108108108108109773e-03
  +1.09652509652509661323e-03
  +1.11196911196911191189e-03
  +1.12741312741312742739e-03
  +1.14285714285714294289e-03
  +1.15830115830115824155e-03
  +1.17374517374517375705e-03
  +1.18918918918918927255e-03
  +1.20463320463320457121e-03
  +1.22007722007722008671e-03
  +1.23552123552123560221e-03
  +1.25096525096525090087e-03
  +1.26640926640926641637e-03
  +1.28185328185328193187e-03
  +1.29729729729729723053e-03
  +1.31274131274131274603e-03
  +1.32818532818532826154e-03
  +1.34362934362934356020e-03
  +1.35907335907335907570e-03
  +1.37451737451737459120e-03
  +1.38996138996138988986e-03
  +1.40540540540540540536e-03
  +1.42084942084942092086e-03
  +1.43629343629343621952e-03
  +1.45173745173745173502e-03
  +1.46718146718146725052e-03
  +1.48262548262548254918e-03
  +1.49806949806949806468e-03
  +1.51351351351351358018e-03
  +1.52895752895752909568e-03
  +1.54440154440154439434e-03
  +1.55984555984555990985e-03
  +1.57528957528957542535e-03
  +1.59073359073359072401e-03
  +1.60617760617760623951e-03
  +1.62162162162162175501e-03
  +1.63706563706563705367e-03
  +1.65250965250965256917e-03
  +1.66795366795366808467e-03
  +1.68339768339768338333e-03
  +1.69884169884169889883e-03
  +1.71428571428571441433e-03
  +1.72972972972972971299e-03
  +1.74517374517374522849e-03
  +1.76061776061776074399e-03
  +1.77606177606177604265e-03
  +1.79150579150579155815e-03
  +1.80694980694980707366e-03
  +1.82239382239382237232e-03
  +1.83783783783783788782e-03
  +1.85328185328185340332e-03
  +1.86872586872586870198e-03
  +1.88416988416988421748e-03
  +1.89961389961389973298e-03
  +1.91505791505791503164e-03
  +1.93050193050193054714e-03
  +1.94594594594594606264e-03
  +1.96138996138996157814e-03
  +1.97683397683397687680e-03
  +1.99227799227799217546e-03
  +2.00772200772200790780e-03
  +2.02316602316602320646e-03
  +2.03861003861003850512e-03
  +2.05405405405405423747e-03
  +2.06949806949806953613e-03
  +2.08494208494208483479e-03
  +2.10038610038610056713e-03
  +2.11583011583011586579e-03
  +2.13127413127413116445e-03
  +2.14671814671814689679e-03
  +2.16216216216216219545e-03
  +2.17760617760617749411e-03
  +2.19305019305019322645e-03
  +2.20849420849420852511e-03
  +2.22393822393822382377e-03
  +2.23938223938223955611e-03
  +2.25482625482625485477e-03
  +2.27027027027027015343e-03
  +2.28571428571428588578e-03
  +2.30115830115830118444e-03
  +2.31660231660231648310e-03
  +2.33204633204633221544e-03
  +2.34749034749034751410e-03
  +2.36293436293436281276e-03
  +2.37837837837837854510e-03
  +2.39382239382239384376e-03
  +2.40926640926640914242e-03
  +2.42471042471042487476e-03
  +2.44015444015444017342e-03
  +2.45559845559845547208e-03
  +2.47104247104247120442e-03
  +2.48648648648648650308e-03
  +2.50193050193050180174e-03
  +2.51737451737451753409e-03
  +2.53281853281853283275e-03
  +2.54826254826254813141e-03
  +2.56370656370656386375e-03
  +2.57915057915057916241e-03
  +2.59459459459459446107e-03
  +2.61003861003861019341e-03
  +2.62548262548262549207e-03
  +2.64092664092664079073e-03
  +2.65637065637065652307e-03
  +2.67181467181467182173e-03
  +2.68725868725868712039e-03
  +2.70270270270270285273e-03
  +2.71814671814671815139e-03
  +2.73359073359073345005e-03
  +2.74903474903474918239e-03
  +2.76447876447876448106e-03
  +2.77992277992277977972e-03
  +2.79536679536679551206e-03
  +2.81081081081081081072e-03
  +2.82625482625482610938e-03
  +2.84169884169884184172e-03
  +2.85714285714285714038e-03
  +2.87258687258687243904e-03
  +2.88803088803088817138e-03
  +2.90347490347490347004e-03
  +2.91891891891891876870e-03
  +2.93436293436293450104e-03
  +2.94980694980694979970e-03
  +2.96525096525096509836e-03
  +2.98069498069498083070e-03
  +2.99613899613899612936e-03
  +3.01158301158301186171e-03
  +3.02702702702702716037e-03
  +3.04247104247104245903e-03
  +3.05791505791505819137e-03
  +3.07335907335907349003e-03
  +3.08880308880308878869e-03
  +3.10424710424710452103e-03
  +3.11969111969111981969e-03
  +3.13513513513513511835e-03
  +3.15057915057915085069e-03
  +3.16602316602316614935e-03
  +3.18146718146718144801e-03
  +3.19691119691119718035e-03
  +3.21235521235521247901e-03
  +3.22779922779922777767e-03
  +3.24324324324324351002e-03
  +3.25868725868725880868e-03
  +3.27413127413127410734e-03
  +3.28957528957528983968e-03
  +3.30501930501930513834e-03
  +3.32046332046332043700e-03
  +3.33590733590733616934e-03
  +3.35135135135135146800e-03
  +3.36679536679536676666e-03
  +3.38223938223938249900e-03
  +3.39768339768339779766e-03
  +3.41312741312741309632e-03
  +3.42857142857142882866e-03
  +3.44401544401544412732e-03
  +3.45945945945945942598e-03
  +3.47490347490347515833e-03
  +3.49034749034749045699e-03
  +3.50579150579150575565e-03
  +3.52123552123552148799e-03
  +3.53667953667953678665e-03
  +3.55212355212355208531e-03
  +3.56756756756756781765e-03
  +3.58301158301158311631e-03
  +3.59845559845559841497e-03
  +3.61389961389961414731e-03
  +3.62934362934362944597e-03
  +3.64478764478764474463e-03
  +3.66023166023166047697e-03
  +3.67567567567567577563e-03
  +3.69111969111969107429e-03
  +3.70656370656370680663e-03
  +3.72200772200772210530e-03
  +3.73745173745173740396e-03
  +3.75289575289575313630e-03
  +3.76833976833976843496e-03
  +3.78378378378378373362e-03
  +3.79922779922779946596e-03
  +3.81467181467181476462e-03
  +3.83011583011583006328e-03
  +3.84555984555984579562e-03
  +3.86100386100386109428e-03
  +3.87644787644787639294e-03
  +3.89189189189189212528e-03
  +3.90733590733590742394e-03
  +3.92277992277992315628e-03
  +3.93822393822393802126e-03
  +3.95366795366795375360e-03
  +3.96911196911196948595e-03
  +3.98455598455598435093e-03
  +4.00000000000000008327e-03
</indep>
<dep vo.Vt time>
  +0.00000000000000000000e+00
  +5.00000000000000000000e+00
  +5.00000000000000000000e+00
  +5.00000000000000000000e+00
  +4.99999999999998578915e+00
  +5.00000000000001421085e+00
  +5.00000000000000000000e+00
  +5.00000000000000000000e+00
  +5.00000000000000000000e+00
  +5.00000000000000000000e+00
  +5.00000000000002842171e+00
  +5.00000000000000000000e+00
  +5.00000000000000000000e+00
  +5.00000000000000000000e+00
  +5.00000000000000000000e+00
  +5.00000000000000000000e+00
  +5.00000000000005684342e+00
  +5.00000000000000000000e+00
  +5.00000000000000000000e+00
  +5.00000000000000000000e+00
  +5.00000000000000000000e+00
  +5.00000000000000000000e+00
  +5.00000000000000000000e+00
  +5.00000000000000000000e+00
  +5.00000000000000000000e+00
  +5.00000000000000000000e+00
  +5.00000000000000000000e+00
  +5.00000000000000000000e+00
  +4.99999999999988631316e+00
  +5.00000000000000000000e+00
  +5.00000000000000000000e+00
  +5.00000000000000000000e+00
  +5.00000000000011368684e+00
  +0.00000000000000000000e+00
  +0.00000000000000000000e+00
  +0.00000000000000000000e+00
  +0.00000000000000000000e+00
  +0.00000000000000000000e+00
  +0.00000000000000000000e+00
  +0.00000000000000000000e+00
  +0.00000000000000000000e+00
  +0.00000000000000000000e+00
  +0.00000000000000000000e+00
  +0.00000000000000000000e+00
  +0.00000000000000000000e+00
  +0.00000000000000000000e+00
  +0.00000000000000000000e+00
  +0.00000000000000000000e+00
  +0.00000000000000000000e+00
  +0.00000000000000000000e+00
  +0.00000000000000000000e+00
  +0.00000000000000000000e+00
  +0.00000000000000000000e+00
  +0.00000000000000000000e+00
  +0.00000000000000000000e+00
  +0.00000000000000000000e+00
  +0.00000000000000000000e+00
  +0.00000000000000000000e+00
  +0.00000000000000000000e+00
  +0.00000000000000000000e+00
  +0.00000000000000000000e+00
  +0.00000000000000000000e+00
  +0.00000000000000000000e+00
  +0.00000000000000000000e+00
  +0.00000000000000000000e+00
  +5.00000000000000000000e+00
  +5.00000000000000000000e+00
  +5.00000000000000000000e+00
  +5.00000000000000000000e+00
  +5.00000000000000000000e+00
  +5.00000000000000000000e+00
  +5.00000000000000000000e+00
  +5.00000000000000000000e+00
  +5.00000000000000000000e+00
  +5.00000000000000000000e+00
  +5.00000000000000000000e+00
  +5.00000000000000000000e+00
  +5.00000000000000000000e+00
  +4.99999999999977262632e+00
  +5.00000000000000000000e+00
  +5.00000000000000000000e+00
  +5.00000000000000000000e+00
  +5.00000000000000000000e+00
  +5.00000000000000000000e+00
  +5.00000000000000000000e+00
  +5.00000000000000000000e+00
  +5.00000000000000000000e+00
  +5.00000000000000000000e+00
  +5.00000000000000000000e+00
  +5.00000000000000000000e+00
  +5.00000000000000000000e+00
  +5.00000000000000000000e+00
  +5.00000000000000000000e+00
  +5.00000000000000000000e+00
  +5.00000000000000000000e+00
  +5.00000000000000000000e+00
  +5.00000000000000000000e+00
  +5.00000000000000000000e+00
  +0.00000000000000000000e+00
  +0.00000000000000000000e+00
  +0.00000000000000000000e+00
  +0.00000000000000000000e+00
  +0.00000000000000000000e+00
  +0.00000000000000000000e+00
  +0.00000000000000000000e+00
  +0.00000000000000000000e+00
  +0.00000000000000000000e+00
  +0.00000000000000000000e+00
  +0.00000000000000000000e+00
  +0.00000000000000000000e+00
  +0.00000000000000000000e+00
  +0.00000000000000000000e+00
  +0.00000000000000000000e+00
  +0.00000000000000000000e+00
  +0.00000000000000000000e+00
  +0.00000000000000000000e+00
  +0.00000000000000000000e+00
  +0.00000000000000000000e+00
  +0.00000000000000000000e+00
  +0.00000000000000000000e+00
  +0.00000000000000000000e+00
  +0.00000000000000000000e+00
  +0.00000000000000000000e+00
  +0.00000000000000000000e+00
  +0.00000000000000000000e+00
  +0.00000000000000000000e+00
  +0.00000000000000000000e+00
  +0.00000000000000000000e+00
  +0.00000000000000000000e+00
  +0.00000000000000000000e+00
  +5.00000000000000000000e+00
  +5.00000000000022737368e+00
  +5.00000000000000000000e+00
  +5.00000000000000000000e+00
  +5.00000000000000000000e+00
  +5.00000000000000000000e+00
  +5.00000000000000000000e+00
  +5.00000000000000000000e+00
  +5.00000000000000000000e+00
  +5.00000000000000000000e+00
  +5.00000000000000000000e+00
  +5.00000000000000000000e+00
  +5.00000000000000000000e+00
  +5.00000000000000000000e+00
  +5.00000000000000000000e+00
  +5.00000000000000000000e+00
  +5.00000000000000000000e+00
  +5.00000000000000000000e+00
  +5.00000000000000000000e+00
  +5.00000000000000000000e+00
  +5.00000000000000000000e+00
  +5.00000000000000000000e+00
  +5.00000000000000000000e+00
  +5.00000000000000000000e+00
  +5.00000000000000000000e+00
  +5.00000000000000000000e+00
  +5.00000000000000000000e+00
  +5.00000000000000000000e+00
  +5.00000000000000000000e+00
  +5.00000000000000000000e+00
  +5.00000000000000000000e+00
  +5.00000000000000000000e+00
  +0.00000000000000000000e+00
  +0.00000000000000000000e+00
  +0.00000000000000000000e+00
  +0.00000000000000000000e+00
  +0.00000000000000000000e+00
  +0.00000000000000000000e+00
  +0.00000000000000000000e+00
  +0.00000000000000000000e+00
  +0.00000000000000000000e+00
  +0.00000000000000000000e+00
  +0.00000000000000000000e+00
  +0.00000000000000000000e+00
  +0.00000000000000000000e+00
  +0.00000000000000000000e+00
  +0.00000000000000000000e+00
  +0.00000000000000000000e+00
  +0.00000000000000000000e+00
  +0.00000000000000000000e+00
  +0.00000000000000000000e+00
  +0.00000000000000000000e+00
  +0.00000000000000000000e+00
  +0.00000000000000000000e+00
  +0.00000000000000000000e+00
  +0.00000000000000000000e+00
  +0.00000000000000000000e+00
  +0.00000000000000000000e+00
  +0.00000000000000000000e+00
  +0.00000000000000000000e+00
  +0.00000000000000000000e+00
  +0.00000000000000000000e+00
  +0.00000000000000000000e+00
  +0.00000000000000000000e+00
  +0.00000000000000000000e+00
  +5.00000000000000000000e+00
  +5.00000000000000000000e+00
  +5.00000000000000000000e+00
  +5.00000000000000000000e+00
  +5.00000000000000000000e+00
  +5.00000000000000000000e+00
  +5.00000000000000000000e+00
  +5.00000000000000000000e+00
  +5.00000000000000000000e+00
  +5.00000000000000000000e+00
  +5.00000000000000000000e+00
  +5.00000000000000000000e+00
  +5.00000000000000000000e+00
  +5.00000000000000000000e+00
  +5.00000000000000000000e+00
  +5.00000000000000000000e+00
  +5.00000000000000000000e+00
  +5.00000000000000000000e+00
  +5.00000000000000000000e+00
  +5.00000000000000000000e+00
  +5.00000000000000000000e+00
  +5.00000000000000000000e+00
  +5.00000000000000000000e+00
  +5.00000000000000000000e+00
  +5.00000000000000000000e+00
  +5.00000000000000000000e+00
  +5.00000000000000000000e+00
  +5.00000000000000000000e+00
  +5.00000000000000000000e+00
  +5.00000000000000000000e+00
  +5.00000000000000000000e+00
  +5.00000000000000000000e+00
  +0.00000000000000000000e+00
  +0.00000000000000000000e+00
  +0.00000000000000000000e+00
  +0.00000000000000000000e+00
  +0.00000000000000000000e+00
  +0.00000000000000000000e+00
  +0.00000000000000000000e+00
  +0.00000000000000000000e+00
  +0.00000000000000000000e+00
  +0.00000000000000000000e+00
  +0.00000000000000000000e+00
  +0.00000000000000000000e+00
  +0.00000000000000000000e+00
  +0.00000000000000000000e+00
  +0.00000000000000000000e+00
  +0.00000000000000000000e+00
  +0.00000000000000000000e+00
  +0.00000000000000000000e+00
  +0.00000000000000000000e+00
  +0.00000000000000000000e+00
  +0.00000000000000000000e+00
  +0.00000000000000000000e+00
  +0.00000000000000000000e+00
  +0.00000000000000000000e+00
  +0.00000000000000000000e+00
  +0.00000000000000000000e+00
  +0.00000000000000000000e+00
  +0.00000000000000000000e+00
  +0.00000000000000000000e+00
  +0.00000000000000000000e+00
  +0.00000000000000000000e+00
  +0.00000000000000000000e+00
  +0.00000000000000000000e+00
</dep>
<dep V1.It time>
  +0.00000000000000000000e+00
  -7.72176026968541009410e+01
  -1.54437679916931301705e+02
  -2.31657757137008388781e+02
  -3.08877834357085589545e+02
  -3.86097911577162790309e+02
  -4.63317988797239934229e+02
  -5.40538066017317078149e+02
  -6.17758143237394278913e+02
  -6.94978220457471479676e+02
  -7.72198297677548907814e+02
  -8.49418374897626222264e+02
  -9.26638452117703309341e+02
  -1.00385852933778062379e+03
  -1.08107860655785771087e+03
  -1.15829868377793468426e+03
  -1.23551876099801188502e+03
  -1.31273883821808954053e+03
  -1.38995891543816628655e+03
  -1.46717899265824280519e+03
  -1.54439906987831955121e+03
  -1.62161914709839629722e+03
  -1.69883922431847372536e+03
  -1.77605930153855092613e+03
  -1.85327937875862721739e+03
  -1.93049945597870396341e+03
  -2.00771953319878093680e+03
  -2.08493961041885859231e+03
  -2.16215968763893442883e+03
  -2.23937976485901072010e+03
  -2.31659984207908746612e+03
  -2.39381991929916375739e+03
  -2.47103999651924095815e+03
  -2.50000002540912419136e+03
  -2.50000002540912419136e+03
  -2.50000002540912419136e+03
  -2.50000002540912419136e+03
  -2.50000002540912419136e+03
  -2.50000002540912419136e+03
  -2.50000002540912419136e+03
  -2.50000002540912419136e+03
  -2.50000002540912419136e+03
  -2.50000002540912419136e+03
  -2.50000002540912419136e+03
  -2.50000002540912419136e+03
  -2.50000002540912419136e+03
  -2.50000002540912419136e+03
  -2.50000002540912419136e+03
  -2.50000002540912419136e+03
  -2.50000002540912419136e+03
  -2.50000002540912419136e+03
  -2.50000002540912419136e+03
  -2.50000002540912419136e+03
  -2.50000002540912419136e+03
  -2.50000002540912419136e+03
  -2.50000002540912419136e+03
  -2.50000002540912419136e+03
  -2.50000002540912419136e+03
  -2.50000002540912419136e+03
  -2.50000002540912419136e+03
  -2.50000002540912419136e+03
  -2.50000002540912419136e+03
  -2.50000002540912419136e+03
  -2.50000002540912419136e+03
  -2.50000002540912419136e+03
  -2.51291444516117962849e+03
  -2.59013452238125364602e+03
  -2.66735459960133175628e+03
  -2.74457467682140759280e+03
  -2.82179475404148342932e+03
  -2.89901483126156153958e+03
  -2.97623490848163874034e+03
  -3.05345498570171548636e+03
  -3.13067506292179314187e+03
  -3.20789514014187034263e+03
  -3.28511521736194617915e+03
  -3.36233529458202428941e+03
  -3.43955537180210194492e+03
  -3.51677544902217732670e+03
  -3.59399552624225361797e+03
  -3.67121560346232990923e+03
  -3.74843568068240665525e+03
  -3.82565575790248431076e+03
  -3.90287583512256105678e+03
  -3.98009591234263780279e+03
  -4.05731598956271318457e+03
  -4.13453606678278902109e+03
  -4.21175614400286576711e+03
  -4.28897622122294524161e+03
  -4.36619629844302198762e+03
  -4.44341637566309782414e+03
  -4.52063645288317457016e+03
  -4.59785653010325040668e+03
  -4.67507660732332988118e+03
  -4.75229668454340662720e+03
  -4.82951676176348246372e+03
  -4.90673683898355830024e+03
  -4.98395691620363595575e+03
  -4.99361192561420466518e+03
  -4.99361192561420557467e+03
  -4.99361192561420739366e+03
  -4.99361192561420739366e+03
  -4.99361192561420739366e+03
  -4.99361192561420739366e+03
  -4.99361192561420739366e+03
  -4.99361192561420739366e+03
  -4.99361192561420739366e+03
  -4.99361192561420739366e+03
  -4.99361192561420739366e+03
  -4.99361192561420739366e+03
  -4.99361192561420739366e+03
  -4.99361192561420739366e+03
  -4.99361192561420739366e+03
  -4.99361192561420739366e+03
  -4.99361192561420739366e+03
  -4.99361192561420739366e+03
  -4.99361192561420739366e+03
  -4.99361192561420739366e+03
  -4.99361192561420739366e+03
  -4.99361192561420739366e+03
  -4.99361192561420739366e+03
  -4.99361192561420739366e+03
  -4.99361192561420739366e+03
  -4.99361192561420739366e+03
  -4.99361192561420739366e+03
  -4.99361192561420739366e+03
  -4.99361192561420739366e+03
  -4.99361192561420739366e+03
  -4.99361192561420739366e+03
  -4.99361192561420739366e+03
  -5.03221946409305928682e+03
  -5.10943954131314148981e+03
  -5.18665961853322005481e+03
  -5.26387969575330316729e+03
  -5.34109977297338173230e+03
  -5.41831985019346211629e+03
  -5.49553992741354522877e+03
  -5.57276000463362470327e+03
  -5.64998008185369872081e+03
  -5.72720015907377637632e+03
  -5.80442023629385221284e+03
  -5.88164031351392895886e+03
  -5.95886039073401025234e+03
