<Qucs Dataset 0.0.19>
<indep time 260>
  +0.00000000000000000000e+00
  +3.47490347490347540227e-05
  +6.94980694980695080454e-05
  +1.04247104247104268844e-04
  +1.38996138996139016091e-04
  +1.73745173745173763337e-04
  +2.08494208494208537689e-04
  +2.43243243243243284935e-04
  +2.77992277992278032182e-04
  +3.12741312741312779428e-04
  +3.47490347490347526675e-04
  +3.82239382239382273921e-04
  +4.16988416988417075378e-04
  +4.51737451737451822624e-04
  +4.86486486486486569870e-04
  +5.21235521235521317117e-04
  +5.55984555984556064363e-04
  +5.90733590733590811610e-04
  +6.25482625482625558856e-04
  +6.60231660231660306103e-04
  +6.94980694980695053349e-04
  +7.29729729729729800596e-04
  +7.64478764478764547842e-04
  +7.99227799227799295088e-04
  +8.33976833976834150755e-04
  +8.68725868725868898002e-04
  +9.03474903474903645248e-04
  +9.38223938223938392494e-04
  +9.72972972972973139741e-04
  +1.00772200772200788699e-03
  +1.04247104247104263423e-03
  +1.07722007722007738148e-03
  +1.11196911196911212873e-03
  +1.14671814671814687597e-03
  +1.18146718146718162322e-03
  +1.21621621621621637047e-03
  +1.25096525096525111771e-03
  +1.28571428571428586496e-03
  +1.32046332046332061221e-03
  +1.35521235521235535945e-03
  +1.38996138996139010670e-03
  +1.42471042471042485394e-03
  +1.45945945945945960119e-03
  +1.49420849420849434844e-03
  +1.52895752895752909568e-03
  +1.56370656370656384293e-03
  +1.59845559845559859018e-03
  +1.63320463320463333742e-03
  +1.66795366795366830151e-03
  +1.70270270270270304876e-03
  +1.73745173745173779600e-03
  +1.77220077220077254325e-03
  +1.80694980694980729050e-03
  +1.84169884169884203774e-03
  +1.87644787644787678499e-03
  +1.91119691119691153224e-03
  +1.94594594594594627948e-03
  +1.98069498069498080989e-03
  +2.01544401544401577397e-03
  +2.05019305019305030438e-03
  +2.08494208494208526847e-03
  +2.11969111969111979887e-03
  +2.15444015444015476296e-03
  +2.18918918918918929337e-03
  +2.22393822393822425745e-03
  +2.25868725868725922154e-03
  +2.29343629343629375195e-03
  +2.32818532818532871603e-03
  +2.36293436293436324644e-03
  +2.39768339768339821053e-03
  +2.43243243243243274093e-03
  +2.46718146718146770502e-03
  +2.50193050193050223542e-03
  +2.53667953667953719951e-03
  +2.57142857142857172992e-03
  +2.60617760617760669400e-03
  +2.64092664092664122441e-03
  +2.67567567567567618850e-03
  +2.71042471042471071890e-03
  +2.74517374517374568299e-03
  +2.77992277992278021340e-03
  +2.81467181467181517748e-03
  +2.84942084942084970789e-03
  +2.88416988416988467198e-03
  +2.91891891891891920238e-03
  +2.95366795366795416647e-03
  +2.98841698841698869687e-03
  +3.02316602316602366096e-03
  +3.05791505791505819137e-03
  +3.09266409266409315545e-03
  +3.12741312741312768586e-03
  +3.16216216216216264995e-03
  +3.19691119691119718035e-03
  +3.23166023166023214444e-03
  +3.26640926640926667485e-03
  +3.30115830115830163893e-03
  +3.33590733590733660302e-03
  +3.37065637065637113343e-03
  +3.40540540540540609751e-03
  +3.44015444015444062792e-03
  +3.47490347490347559201e-03
  +3.50965250965251012241e-03
  +3.54440154440154508650e-03
  +3.57915057915057961690e-03
  +3.61389961389961458099e-03
  +3.64864864864864911140e-03
  +3.68339768339768407548e-03
  +3.71814671814671860589e-03
  +3.75289575289575356998e-03
  +3.78764478764478810038e-03
  +3.82239382239382306447e-03
  +3.85714285714285759488e-03
  +3.89189189189189255896e-03
  +3.92664092664092752305e-03
  +3.96138996138996161978e-03
  +3.99613899613899658386e-03
  +4.03088803088803154795e-03
  +4.06563706563706651204e-03
  +4.10038610038610060876e-03
  +4.13513513513513557285e-03
  +4.16988416988417053693e-03
  +4.20463320463320550102e-03
  +4.23938223938223959775e-03
  +4.27413127413127456183e-03
  +4.30888030888030952592e-03
  +4.34362934362934449001e-03
  +4.37837837837837858673e-03
  +4.41312741312741355082e-03
  +4.44787644787644851491e-03
  +4.48262548262548347899e-03
  +4.51737451737451844308e-03
  +4.55212355212355253981e-03
  +4.58687258687258750389e-03
  +4.62162162162162246798e-03
  +4.65637065637065743207e-03
  +4.69111969111969152879e-03
  +4.72586872586872649288e-03
  +4.76061776061776145696e-03
  +4.79536679536679642105e-03
  +4.83011583011583051778e-03
  +4.86486486486486548186e-03
  +4.89961389961390044595e-03
  +4.93436293436293541004e-03
  +4.96911196911196950676e-03
  +5.00386100386100447085e-03
  +5.03861003861003943494e-03
  +5.07335907335907439902e-03
  +5.10810810810810849575e-03
  +5.14285714285714345984e-03
  +5.17760617760617842392e-03
  +5.21235521235521338801e-03
  +5.24710424710424748473e-03
  +5.28185328185328244882e-03
  +5.31660231660231741291e-03
  +5.35135135135135237699e-03
  +5.38610038610038647372e-03
  +5.42084942084942143781e-03
  +5.45559845559845640189e-03
  +5.49034749034749136598e-03
  +5.52509652509652546271e-03
  +5.55984555984556042679e-03
  +5.59459459459459539088e-03
  +5.62934362934363035497e-03
  +5.66409266409266531905e-03
  +5.69884169884169941578e-03
  +5.73359073359073437987e-03
  +5.76833976833976934395e-03
  +5.80308880308880430804e-03
  +5.83783783783783840476e-03
  +5.87258687258687336885e-03
  +5.90733590733590833294e-03
  +5.94208494208494329702e-03
  +5.97683397683397739375e-03
  +6.01158301158301235784e-03
  +6.04633204633204732192e-03
  +6.08108108108108228601e-03
  +6.11583011583011638274e-03
  +6.15057915057915134682e-03
  +6.18532818532818631091e-03
  +6.22007722007722127500e-03
  +6.25482625482625537172e-03
  +6.28957528957529033581e-03
  +6.32432432432432529990e-03
  +6.35907335907336026398e-03
  +6.39382239382239436071e-03
  +6.42857142857142932479e-03
  +6.46332046332046428888e-03
  +6.49806949806949925297e-03
  +6.53281853281853334969e-03
  +6.56756756756756831378e-03
  +6.60231660231660327787e-03
  +6.63706563706563824195e-03
  +6.67181467181467320604e-03
  +6.70656370656370730277e-03
  +6.74131274131274226685e-03
  +6.77606177606177723094e-03
  +6.81081081081081219503e-03
  +6.84555984555984629175e-03
  +6.88030888030888125584e-03
  +6.91505791505791621993e-03
  +6.94980694980695118401e-03
  +6.98455598455598528074e-03
  +7.01930501930502024482e-03
  +7.05405405405405520891e-03
  +7.08880308880309017300e-03
  +7.12355212355212426972e-03
  +7.15830115830115923381e-03
  +7.19305019305019419790e-03
  +7.22779922779922916198e-03
  +7.26254826254826325871e-03
  +7.29729729729729822280e-03
  +7.33204633204633318688e-03
  +7.36679536679536815097e-03
  +7.40154440154440224769e-03
  +7.43629343629343721178e-03
  +7.47104247104247217587e-03
  +7.50579150579150713996e-03
  +7.54054054054054123668e-03
  +7.57528957528957620077e-03
  +7.61003861003861116485e-03
  +7.64478764478764612894e-03
  +7.67953667953668022567e-03
  +7.71428571428571518975e-03
  +7.74903474903475015384e-03
  +7.78378378378378511793e-03
  +7.81853281853281921465e-03
  +7.85328185328185504610e-03
  +7.88803088803088914283e-03
  +7.92277992277992323955e-03
  +7.95752895752895907100e-03
  +7.99227799227799316772e-03
  +8.02702702702702899917e-03
  +8.06177606177606309590e-03
  +8.09652509652509719262e-03
  +8.13127413127413302407e-03
  +8.16602316602316712080e-03
  +8.20077220077220121752e-03
  +8.23552123552123704897e-03
  +8.27027027027027114570e-03
  +8.30501930501930697714e-03
  +8.33976833976834107387e-03
  +8.37451737451737517060e-03
  +8.40926640926641100204e-03
  +8.44401544401544509877e-03
  +8.47876447876447919549e-03
  +8.51351351351351502694e-03
  +8.54826254826254912367e-03
  +8.58301158301158495512e-03
  +8.61776061776061905184e-03
  +8.65250965250965314857e-03
  +8.68725868725868898002e-03
  +8.72200772200772307674e-03
  +8.75675675675675717347e-03
  +8.79150579150579300491e-03
  +8.82625482625482710164e-03
  +8.86100386100386293309e-03
  +8.89575289575289702981e-03
  +8.93050193050193112654e-03
  +8.96525096525096695799e-03
  +9.00000000000000105471e-03
</indep>
<dep vo.Vt time>
  +0.00000000000000000000e+00
  +4.82923972892482655794e+00
  +4.66430791232713648498e+00
  -4.81996185899262741259e-01
  -4.65534761487510995170e-01
  -4.49635404297722196532e-01
  +4.51293623070498384209e+00
  +4.35880819864250934614e+00
  +4.20994068585618919087e+00
  -8.70538386312179057747e-01
  -8.40807279800875662090e-01
  -8.12091519770728020866e-01
  +4.13142093396974452446e+00
  +3.99032172615496394386e+00
  +3.85403998564169292251e+00
  -1.17252829466345787068e+00
  -1.13248331909598443090e+00
  -1.09380593332139075535e+00
  +3.81774874191122304268e+00
  +3.68736270804768739850e+00
  +3.56142958245836105391e+00
  -1.41374268178285622533e+00
  -1.36545958796973510019e+00
  -1.31882533911489785439e+00
  +3.55918637620049604919e+00
  +3.43763059371144041876e+00
  -1.66307944115201089552e+00
  -1.60628127303869638887e+00
  -1.55142196100876650355e+00
  +3.46589858285616969624e+00
  +3.34752989019504187951e+00
  +3.23320238304039353494e+00
  -1.83609699738963705329e+00
  -1.77338973998303384150e+00
  -1.71282386356069338262e+00
  +3.26524830126437226596e+00
  +3.15373198932465292899e+00
  +3.04602208213782255086e+00
  -1.95673189836127714436e+00
  -1.88990409393205816002e+00
  -1.82535807653894366354e+00
  +3.11494594763940568782e+00
  +3.00856091272613213050e+00
  +2.90580895763819357924e+00
  -2.05072158529106207681e+00
  -1.98068264422641027167e+00
  -1.91303574480040716743e+00
  +2.98900334613797058481e+00
  +2.88692112453277394124e+00
  -2.18329318925339732615e+00
  -2.10872791463962538927e+00
  -2.03670854341615159555e+00
  +2.98607276518200270843e+00
  +2.88409093251763115617e+00
  +2.78558976041260653034e+00
  -2.27966212148666036441e+00
  -2.20180622719228535900e+00
  -2.12660837985773332193e+00
  +2.90501448628753022874e+00
  +2.80580131670789700848e+00
  +2.70997547717519582378e+00
  -2.28508600557949081988e+00
  -2.20704419980386035149e+00
  -2.13166771208571947938e+00
  +2.82286585273152956788e+00
  +2.72645743795167794232e+00
  +2.63334150115951803883e+00
  -2.31763594156834784599e+00
  -2.23848182429391950876e+00
  -2.16203067868347220681e+00
  +2.75224878227456626334e+00
  +2.65825177827284298004e+00
  -2.39155720876133770503e+00
  -2.30987960932765634681e+00
  -2.23099120928965888311e+00
  +2.81970304947106420457e+00
  +2.72340334655993165924e+00
  +2.63039072352546243749e+00
  -2.42578256257413205077e+00
  -2.34293624666607636087e+00
  -2.26291796607333450808e+00
  +2.74154461377419744750e+00
  +2.64791373148327124909e+00
  +2.55748051233008144578e+00
  -2.43616047343081332244e+00
  -2.35295881770977999281e+00
  -2.27259805778992474146e+00
  +2.69051970550121000159e+00
  +2.59863086777870755384e+00
  +2.50987963309163220060e+00
  -2.44063623847711319570e+00
  -2.35728207103345610562e+00
  -2.27677466834756625502e+00
  +2.64516260010575621209e+00
  +2.55482334683173162304e+00
  -2.51066663504568721166e+00
  -2.42492115018422582651e+00
  -2.34210370902320530462e+00
  +2.71665598785962902895e+00
  +2.62387487916701100943e+00
  +2.53426157060502799112e+00
  -2.50807253726291135010e+00
  -2.42241548837278797279e+00
  -2.33968327799092801200e+00
  +2.67120785736533905563e+00
  +2.57997947800239479932e+00
  +2.49186487508236220734e+00
  -2.50332497846773893713e+00
  -2.41783011372424549990e+00
  -2.33525493409099027531e+00
  +2.63377707094333457505e+00
  +2.54382654121697893146e+00
  +2.45694779539589625017e+00
  -2.49551874556167518904e+00
  -2.41029011124632575047e+00
  -2.32797210943958310381e+00
  +2.59945604332195800978e+00
  +2.51067742134009597166e+00
  -2.53291445327638964358e+00
  -2.44640915819345172721e+00
  -2.36285789713450178340e+00
  +2.69396929689652164797e+00
  +2.60196381282319677553e+00
  +2.51309928916452429704e+00
  -2.53384591731547370586e+00
  -2.44730878038835486521e+00
  -2.36372683409109374253e+00
  +2.65179430333624388538e+00
  +2.56122899089923583560e+00
  +2.47375540012654582256e+00
  -2.52460903844936224161e+00
  -2.43838741470986564153e+00
  -2.35510929969749982504e+00
  +2.61837747309255064465e+00
  +2.52895269566386726723e+00
  +2.44258121167376618388e+00
  -2.51315556259433048325e+00
  -2.42732399669447085344e+00
  -2.34442335097499254815e+00
  +2.58731168529825561464e+00
  +2.49894786271172986147e+00
  +2.41360113538809928357e+00
  -2.49993430622740486768e+00
  -2.41455499112643545701e+00
  +2.64567161071748735424e+00
  +2.55531561795427819561e+00
  +2.46804454467363676429e+00
  -2.57359256370943523251e+00
  -2.48569801017011693389e+00
  -2.40080492043257720525e+00
  +2.61979474621116725785e+00
  +2.53032159365354836211e+00
  +2.44390335533884917041e+00
  -2.59731438682712667543e+00
  -2.50860967471757234648e+00
  -2.42293410147453824877e+00
  +2.55664929326784085006e+00
  +2.46933282649392360497e+00
  +2.38499794062571712772e+00
  -2.57253602616373999723e+00
  -2.48467564154259035192e+00
  -2.39981585791232188143e+00
  +2.53755890310950293909e+00
  +2.45089435721843562632e+00
  +2.36718879966726447606e+00
  -2.54849355316121695125e+00
  -2.46145571036274590782e+00
  +2.60412696840316026936e+00
  +2.51518947932233238873e+00
  +2.42928889702012229534e+00
  -2.61713447853309011393e+00
  -2.52775263730417076857e+00
  -2.44142323354650692124e+00
  +2.58437876046116343787e+00
  +2.49611560011337818565e+00
  +2.41086647361250827615e+00
  -2.59294557627538591049e+00
  -2.50438961880251920178e+00
  -2.41885702272171565497e+00
  +2.56436960323637741510e+00
  +2.47678978119780746070e+00
  +2.39220093075937256799e+00
  -2.56934598529069235795e+00
  -2.48159618568280349038e+00
  -2.39684317409258218490e+00
  +2.54418082551393220925e+00
  +2.45728996389832943237e+00
  +2.37336597383628244984e+00
  -2.54626218057218967061e+00
  -2.45930040118248394165e+00
  +2.61001073758553792103e+00
  +2.52087248913632189229e+00
  +2.43477671809091233968e+00
  -2.61631137624996412683e+00
  -2.52695808292499091152e+00
  -2.44065513379275600414e+00
  +2.60476526200349978168e+00
  +2.51580595844584609111e+00
  +2.42988429136811756592e+00
  -2.57837913779126504110e+00
  -2.49032062054613190227e+00
  -2.40526853222452796643e+00
  +2.58127971475338302554e+00
  +2.49312202206787869585e+00
  +2.40797425035154777362e+00
  -2.55788100881063229508e+00
  -2.47052253534751198316e+00
  -2.38614736519140846482e+00
  +2.55826513029236624064e+00
  +2.47089346088227568288e+00
  +2.38650521152803962721e+00
  -2.53730953948033377543e+00
  -2.45065360599467751967e+00
  +2.61613217919481622076e+00
  +2.52678477305441617773e+00
  +2.44048838023797998176e+00
  -2.62316024751551690741e+00
  -2.53357281934829048353e+00
  -2.44704472754403257184e+00
  +2.60943359043980738221e+00
  +2.52031512273264102220e+00
  +2.43423869178279339565e+00
  -2.57797765426465641525e+00
  -2.48993336238405804650e+00
  -2.40489472649641911062e+00
  +2.58542950025383833079e+00
  +2.49712974895613104565e+00
  +2.41184506970241585577e+00
  -2.55791498859234955887e+00
  -2.47055527671016772473e+00
  -2.38617857470796579378e+00
  +2.56199131638813426548e+00
  +2.47449258164148400141e+00
  +2.38998215857774054527e+00
  -2.53769212745438732526e+00
  -2.45102327054629220981e+00
  +2.61103722356361078738e+00
  +2.52186334822227076202e+00
  +2.43573415959282479903e+00
  -2.60079431326251597767e+00
  -2.51197072781283248233e+00
  -2.42618026186690771695e+00
  +2.61056409214171880606e+00
  +2.52140625897599646166e+00
  +2.43529250898421567584e+00
  -2.60481633949122048932e+00
  -2.51585541552457137016e+00
  -2.42993236060645623198e+00
  +2.56503881348491935555e+00
  +2.47743577087488953126e+00
  +2.39282373904097633854e+00
  -2.58006220613420778065e+00
  -2.49194602536534448589e+00
  -2.40683843140614728284e+00
  +2.54579689531430553018e+00
  +2.45885111574582015947e+00
  +2.37487473988938235792e+00
  -2.55602694916792927415e+00
  -2.46873160648146505736e+00
  -2.38441763958105701349e+00
</dep>
<dep V1.It time>
  +0.00000000000000000000e+00
  -1.70760271075173699230e-04
  -3.35692087672863500279e-04
  -4.81996185899262723912e-04
  -4.65534761487510992135e-04
  -4.49635404297722186557e-04
  -4.87063769295016072043e-04
  -6.41191801357490613091e-04
  -7.90059314143810322538e-04
  -8.70538386312179096778e-04
  -8.40807279800875667294e-04
  -8.12091519770728005254e-04
  -8.68579066030255773044e-04
  -1.00967827384503602145e-03
  -1.14596001435830676524e-03
  -1.17252829466345785160e-03
  -1.13248331909598432855e-03
  -1.09380593332139065300e-03
  -1.18225125808877674395e-03
  -1.31263729195231254772e-03
  -1.43857041754163897732e-03
  -1.41374268178285624961e-03
  -1.36545958796973503947e-03
  -1.31882533911489787000e-03
  -1.44081362379950379468e-03
  -1.56236940628855930369e-03
  -1.66307944115201100481e-03
  -1.60628127303869645479e-03
  -1.55142196100876658162e-03
  -1.53410141714383049978e-03
  -1.65247010980495837897e-03
  -1.76679761695960673915e-03
  -1.83609699738963697870e-03
  -1.77338973998303383109e-03
  -1.71282386356069347630e-03
  -1.73475169873562760567e-03
  -1.84626801067534719245e-03
  -1.95397791786217772669e-03
  -1.95673189836127704375e-03
  -1.88990409393205807155e-03
  -1.82535807653894360109e-03
  -1.88505405236059409881e-03
  -1.99143908727386761623e-03
  -2.09419104236180635831e-03
  -2.05072158529106228497e-03
  -1.98068264422641016759e-03
  -1.91303574480040710845e-03
  -2.01099665386202932846e-03
  -2.11307887546722606223e-03
  -2.18329318925339745452e-03
  -2.10872791463962523315e-03
  -2.03670854341615140820e-03
  -2.01392723481799750321e-03
  -2.11590906748236867035e-03
  -2.21441023958739331701e-03
  -2.27966212148666014931e-03
  -2.20180622719228554635e-03
  -2.12660837985773325948e-03
  -2.09498551371246986147e-03
  -2.19419868329210308866e-03
  -2.29002452282480416235e-03
  -2.28508600557949083723e-03
  -2.20704419980386054231e-03
  -2.13166771208571966673e-03
  -2.17713414726847026212e-03
  -2.27354256204832187033e-03
  -2.36665849884048215893e-03
  -2.31763594156834777660e-03
  -2.23848182429391964407e-03
  -2.16203067868347238376e-03
  -2.24775121772543369156e-03
  -2.34174822172715686730e-03
  -2.39155720876133752809e-03
  -2.30987960932765639885e-03
  -2.23099120928965883107e-03
  -2.18029695052893591339e-03
  -2.27659665344006820198e-03
  -2.36960927647453765965e-03
  -2.42578256257413183566e-03
  -2.34293624666607634352e-03
  -2.26291796607333431726e-03
  -2.25845538622580256638e-03
  -2.35208626851672857744e-03
  -2.44251948766991853687e-03
  -2.43616047343081336407e-03
  -2.35295881770978014200e-03
  -2.27259805778992456105e-03
  -2.30948029449878997760e-03
  -2.40136913222129249473e-03
  -2.49012036690836758429e-03
  -2.44063623847711299100e-03
  -2.35728207103345606746e-03
  -2.27677466834756616482e-03
  -2.35483739989424383648e-03
  -2.44517665316826846370e-03
  -2.51066663504568741636e-03
  -2.42492115018422575365e-03
  -2.34210370902320549197e-03
  -2.28334401214037082534e-03
  -2.37612512083298877894e-03
  -2.46573842939497214072e-03
  -2.50807253726291132234e-03
  -2.42241548837278776810e-03
  -2.33968327799092797384e-03
  -2.32879214263466112825e-03
  -2.42002052199760502027e-03
  -2.50813512491763774409e-03
  -2.50332497846773903774e-03
  -2.41783011372424545132e-03
  -2.33525493409099046960e-03
  -2.36622292905666522372e-03
  -2.45617345878302098527e-03
  -2.54305220460410369779e-03
  -2.49551874556167528618e-03
  -2.41029011124632578170e-03
  -2.32797210943958303095e-03
  -2.40054395667804211512e-03
  -2.48932257865990382364e-03
  -2.53291445327638977195e-03
  -2.44640915819345191110e-03
  -2.36285789713450199503e-03
  -2.30603070310347836244e-03
  -2.39803618717680322794e-03
  -2.48690071083547577235e-03
  -2.53384591731547386198e-03
  -2.44730878038835466745e-03
  -2.36372683409109395763e-03
  -2.34820569666375610768e-03
  -2.43877100910076414705e-03
  -2.52624459987345426765e-03
  -2.52460903844936232487e-03
  -2.43838741470986559989e-03
  -2.35510929969749965157e-03
  -2.38162252690744943515e-03
  -2.47104730433613277094e-03
  -2.55741878832623382306e-03
  -2.51315556259433048672e-03
  -2.42732399669447077364e-03
  -2.34442335097499255162e-03
  -2.41268831470174433679e-03
  -2.50105213728827029812e-03
  -2.58639886461190090725e-03
  -2.49993430622740507585e-03
