<Qucs Dataset 0.0.19>
<indep time 20>
  +0.00000000000000000000e+00
  +5.26315789473684222374e-06
  +1.05263157894736844475e-05
  +1.57894736842105258242e-05
  +2.10526315789473688950e-05
  +2.63157894736842119657e-05
  +3.15789473684210516484e-05
  +3.68421052631578947192e-05
  +4.21052631578947377899e-05
  +4.73684210526315808607e-05
  +5.26315789473684239315e-05
  +5.78947368421052670022e-05
  +6.31578947368421032968e-05
  +6.84210526315789463675e-05
  +7.36842105263157894383e-05
  +7.89473684210526325091e-05
  +8.42105263157894755799e-05
  +8.94736842105263186506e-05
  +9.47368421052631617214e-05
  +1.00000000000000004792e-04
</indep>
<dep voltimetro.Vt time>
  +0.00000000000000000000e+00
  +1.62349734602341722045e+00
  +3.07106356344833919536e+00
  +4.18583239131264228661e+00
  +4.84700132969665187233e+00
  +4.98292246503334901320e+00
  +4.57886663327528697920e+00
  +3.67861955336565893404e+00
  +2.37973696518536836919e+00
  +8.22972951403670105464e-01
  -8.22972951403671104664e-01
  -2.37973696518536925737e+00
  -3.67861955336565804586e+00
  -4.57886663327528609102e+00
  -4.98292246503334901320e+00
  -4.84700132969665276050e+00
  -4.18583239131264406296e+00
  -3.07106356344834008354e+00
  -1.62349734602341877476e+00
  +3.21964677141295396723e-15
</dep>
<dep V1.It time>
  +0.00000000000000000000e+00
  -1.39652593756350262844e+00
  -1.16529465105238405620e+00
  -8.07570135966693580798e-01
  -3.62548337630721251301e-01
  +1.21936774930643962445e-01
  +5.93120838052180632261e-01
  +1.00005425280361537332e+00
  +1.29860587515686298765e+00
  +1.45644379765701459384e+00
  +1.45644303896057070169e+00
  +1.29862447461709695773e+00
  +1.00006940154748225069e+00
  +5.93151687810854033600e-01
  +1.21946388337083155839e-01
  -3.62463297840058928934e-01
  -8.07604858164769234818e-01
  -1.16521950416091191194e+00
  -1.39657493330349091742e+00
  -1.47657940166427126272e+00
</dep>
<dep _net1.Vt time>
  +0.00000000000000000000e+00
  +1.62349734602341722045e+00
  +3.07106356344833919536e+00
  +4.18583239131264228661e+00
  +4.84700132969665187233e+00
  +4.98292246503334901320e+00
  +4.57886663327528697920e+00
  +3.67861955336565893404e+00
  +2.37973696518536836919e+00
  +8.22972951403670105464e-01
  -8.22972951403671104664e-01
  -2.37973696518536925737e+00
  -3.67861955336565804586e+00
  -4.57886663327528609102e+00
  -4.98292246503334901320e+00
  -4.84700132969665276050e+00
  -4.18583239131264406296e+00
  -3.07106356344834008354e+00
  -1.62349734602341877476e+00
  +3.21964677141295396723e-15
</dep>
<dep _net0.Vt time>
  +0.00000000000000000000e+00
  +1.62349734602341722045e+00
  +3.07106356344833919536e+00
  +4.18583239131264228661e+00
  +4.84700132969665187233e+00
  +4.98292246503334901320e+00
  +4.57886663327528697920e+00
  +3.67861955336565893404e+00
  +2.37973696518536836919e+00
  +8.22972951403670105464e-01
  -8.22972951403671104664e-01
  -2.37973696518536925737e+00
  -3.67861955336565804586e+00
  -4.57886663327528609102e+00
  -4.98292246503334901320e+00
  -4.84700132969665276050e+00
  -4.18583239131264406296e+00
  -3.07106356344834008354e+00
  -1.62349734602341877476e+00
  +3.21624529935327310243e-15
</dep>
