<Qucs Dataset 0.0.20>
<indep vce 10>
  +0.00000000000000000000e+00
  +1.33333333333333325932e+00
  +2.66666666666666651864e+00
  +4.00000000000000000000e+00
  +5.33333333333333303727e+00
  +6.66666666666666607455e+00
  +8.00000000000000000000e+00
  +9.33333333333333214910e+00
  +1.06666666666666660745e+01
  +1.20000000000000000000e+01
</indep>
<indep ib 10>
  +0.00000000000000000000e+00
  +6.27777777777777743487e-06
  +1.25555555555555548697e-05
  +1.88333333333333314576e-05
  +2.51111111111111097395e-05
  +3.13888888888888846333e-05
  +3.76666666666666629152e-05
  +4.39444444444444411971e-05
  +5.02222222222222194790e-05
  +5.64999999999999977609e-05
</indep>
<dep ic vce ib>
  -0.00000000000000000000e+00
  +3.09908535306537788621e-12
  +5.85285799738143599681e-12
  +8.68939214296102339859e-12
  +1.16016721615378655745e-11
  +1.45885878328825947230e-11
  +1.76478886891470845096e-11
  +2.07798702549210292683e-11
  +2.39836619103032759820e-11
  +2.72586859683273437648e-11
  -6.17179365565529380010e-06
  +1.25869187124393847217e-03
  +1.27536229826000473836e-03
  +1.29203272534445814078e-03
  +1.30870315250077137899e-03
  +1.32537357972725960281e-03
  +1.34204400702548709914e-03
  +1.35871443439414458544e-03
  +1.37538486182986843288e-03
  +1.39205528934254331268e-03
  -1.23173145507791113352e-05
  +2.50649272445453968200e-03
  +2.53969524439946357439e-03
  +2.57289776441265881021e-03
  +2.60610028449637272374e-03
  +2.63930280465053852812e-03
  +2.67250532487197474049e-03
  +2.70570784516700789737e-03
  +2.73891036552940426996e-03
  +2.77211288596319535560e-03
  -1.84367705050820845578e-05
  +3.74393750639557664622e-03
  +3.79353713602035604036e-03
  +3.84313676571392936338e-03
  +3.89273639547513478423e-03
  +3.94233602530939808428e-03
  +3.99193565521121541961e-03
  +4.04153528518414947857e-03
  +4.09113491522125356098e-03
  +4.14073454533253441923e-03
  -2.45303650072821411918e-05
  +4.97132949853055887413e-03
  +5.03719446975636579722e-03
  +5.10305944105287137558e-03
  +5.16892441241510128963e-03
  +5.23478938384723362087e-03
  +5.30065435535210030538e-03
  +5.36651932692224029747e-03
  +5.43238429856030945880e-03
  +5.49824927026959595772e-03
  -3.05982989032942132024e-05
  +6.18893086805233534620e-03
  +6.27093250233283754785e-03
  +6.35293413668070860306e-03
  +6.43493577109492242289e-03
  +6.51693740558224182680e-03
  +6.59893904013255511165e-03
  +6.68094067475702955983e-03
  +6.76294230944473814815e-03
  +6.84494394420204037288e-03
  -3.66407708269931653780e-05
  +7.39698299035783032873e-03
  +7.49499557980335892604e-03
  +7.59300816931647234997e-03
  +7.69102075889359533545e-03
  +7.78903334854075084237e-03
  +7.88704593825508351590e-03
  +7.98505852803757520952e-03
  +8.08307111788748519632e-03
  +8.18108370780425142588e-03
  -4.26579773925659516687e-05
  +8.59571297107295656525e-03
  +8.70961366588716978665e-03
  +8.82351436076712902778e-03
  +8.93741505571427584387e-03
  +9.05131575072769950507e-03
  +9.16521644581122854611e-03
  +9.27911714095910888922e-03
  +9.39301783617555417771e-03
  +9.50691853145622239873e-03
  -4.86501133024677939048e-05
  +9.78533659553557436106e-03
  +9.91500529733724093873e-03
  +1.00446739992037098466e-02
  +1.01743427011369829555e-02
  +1.03040114031393501004e-02
  +1.04336801052047484228e-02
  +1.05633488073381826000e-02
  +1.06930175095389257828e-02
  +1.08226862118077048203e-02
  -5.46173714173249242460e-05
  +1.09660599765128898703e-02
  +1.11113792371420796318e-02
  +1.12566984978352130353e-02
  +1.14020177585967708717e-02
  +1.15473370194230286895e-02
  +1.16926562803152805925e-02
  +1.18379755412775840989e-02
  +1.19832948023011372218e-02
  +1.21286140633962667701e-02
</dep>
<dep Vout.V vce ib>
  +0.00000000000000000000e+00
  +1.33333333333333325932e+00
  +2.66666666666666651864e+00
  +4.00000000000000000000e+00
  +5.33333333333333303727e+00
  +6.66666666666666607455e+00
  +8.00000000000000000000e+00
  +9.33333333333333214910e+00
  +1.06666666666666660745e+01
  +1.20000000000000000000e+01
  +0.00000000000000000000e+00
  +1.33333333333333325932e+00
  +2.66666666666666651864e+00
  +4.00000000000000000000e+00
  +5.33333333333333303727e+00
  +6.66666666666666607455e+00
  +8.00000000000000000000e+00
  +9.33333333333333214910e+00
  +1.06666666666666660745e+01
  +1.20000000000000000000e+01
  +0.00000000000000000000e+00
  +1.33333333333333325932e+00
  +2.66666666666666651864e+00
  +4.00000000000000000000e+00
  +5.33333333333333303727e+00
  +6.66666666666666607455e+00
  +8.00000000000000000000e+00
  +9.33333333333333214910e+00
  +1.06666666666666660745e+01
  +1.20000000000000000000e+01
  +0.00000000000000000000e+00
  +1.33333333333333325932e+00
  +2.66666666666666651864e+00
  +4.00000000000000000000e+00
  +5.33333333333333303727e+00
  +6.66666666666666607455e+00
  +8.00000000000000000000e+00
  +9.33333333333333214910e+00
  +1.06666666666666660745e+01
  +1.20000000000000000000e+01
  +0.00000000000000000000e+00
  +1.33333333333333325932e+00
  +2.66666666666666651864e+00
  +4.00000000000000000000e+00
  +5.33333333333333303727e+00
  +6.66666666666666607455e+00
  +8.00000000000000000000e+00
  +9.33333333333333214910e+00
  +1.06666666666666660745e+01
  +1.20000000000000000000e+01
  +0.00000000000000000000e+00
  +1.33333333333333325932e+00
  +2.66666666666666651864e+00
  +4.00000000000000000000e+00
  +5.33333333333333303727e+00
  +6.66666666666666607455e+00
  +8.00000000000000000000e+00
  +9.33333333333333214910e+00
  +1.06666666666666660745e+01
  +1.20000000000000000000e+01
  +0.00000000000000000000e+00
  +1.33333333333333325932e+00
  +2.66666666666666651864e+00
  +4.00000000000000000000e+00
  +5.33333333333333303727e+00
  +6.66666666666666607455e+00
  +8.00000000000000000000e+00
  +9.33333333333333214910e+00
  +1.06666666666666660745e+01
  +1.20000000000000000000e+01
  +0.00000000000000000000e+00
  +1.33333333333333325932e+00
  +2.66666666666666651864e+00
  +4.00000000000000000000e+00
  +5.33333333333333303727e+00
  +6.66666666666666607455e+00
  +8.00000000000000000000e+00
  +9.33333333333333214910e+00
  +1.06666666666666660745e+01
  +1.20000000000000000000e+01
  +0.00000000000000000000e+00
  +1.33333333333333325932e+00
  +2.66666666666666651864e+00
  +4.00000000000000000000e+00
  +5.33333333333333303727e+00
  +6.66666666666666607455e+00
  +8.00000000000000000000e+00
  +9.33333333333333214910e+00
  +1.06666666666666660745e+01
  +1.20000000000000000000e+01
  +0.00000000000000000000e+00
  +1.33333333333333325932e+00
  +2.66666666666666651864e+00
  +4.00000000000000000000e+00
  +5.33333333333333303727e+00
  +6.66666666666666607455e+00
  +8.00000000000000000000e+00
  +9.33333333333333214910e+00
  +1.06666666666666660745e+01
  +1.20000000000000000000e+01
</dep>
<dep V1.I vce ib>
  +0.00000000000000000000e+00
  -3.09908535306537788621e-12
  -5.85285799738143599681e-12
  -8.68939214296102339859e-12
  -1.16016721615378655745e-11
  -1.45885878328825947230e-11
  -1.76478886891470845096e-11
  -2.07798702549210292683e-11
  -2.39836619103032759820e-11
  -2.72586859683273437648e-11
  +6.17179365565529380010e-06
  -1.25869187124393847217e-03
  -1.27536229826000473836e-03
  -1.29203272534445814078e-03
  -1.30870315250077137899e-03
  -1.32537357972725960281e-03
  -1.34204400702548709914e-03
  -1.35871443439414458544e-03
  -1.37538486182986843288e-03
  -1.39205528934254331268e-03
  +1.23173145507791113352e-05
  -2.50649272445453968200e-03
  -2.53969524439946357439e-03
  -2.57289776441265881021e-03
  -2.60610028449637272374e-03
  -2.63930280465053852812e-03
  -2.67250532487197474049e-03
  -2.70570784516700789737e-03
  -2.73891036552940426996e-03
  -2.77211288596319535560e-03
  +1.84367705050820845578e-05
  -3.74393750639557664622e-03
  -3.79353713602035604036e-03
  -3.84313676571392936338e-03
  -3.89273639547513478423e-03
  -3.94233602530939808428e-03
  -3.99193565521121541961e-03
  -4.04153528518414947857e-03
  -4.09113491522125356098e-03
  -4.14073454533253441923e-03
  +2.45303650072821411918e-05
  -4.97132949853055887413e-03
  -5.03719446975636579722e-03
  -5.10305944105287137558e-03
  -5.16892441241510128963e-03
  -5.23478938384723362087e-03
  -5.30065435535210030538e-03
  -5.36651932692224029747e-03
  -5.43238429856030945880e-03
  -5.49824927026959595772e-03
  +3.05982989032942132024e-05
  -6.18893086805233534620e-03
  -6.27093250233283754785e-03
  -6.35293413668070860306e-03
  -6.43493577109492242289e-03
  -6.51693740558224182680e-03
  -6.59893904013255511165e-03
  -6.68094067475702955983e-03
  -6.76294230944473814815e-03
  -6.84494394420204037288e-03
  +3.66407708269931653780e-05
  -7.39698299035783032873e-03
  -7.49499557980335892604e-03
  -7.59300816931647234997e-03
  -7.69102075889359533545e-03
  -7.78903334854075084237e-03
  -7.88704593825508351590e-03
  -7.98505852803757520952e-03
  -8.08307111788748519632e-03
  -8.18108370780425142588e-03
  +4.26579773925659516687e-05
  -8.59571297107295656525e-03
  -8.70961366588716978665e-03
  -8.82351436076712902778e-03
  -8.93741505571427584387e-03
  -9.05131575072769950507e-03
  -9.16521644581122854611e-03
  -9.27911714095910888922e-03
  -9.39301783617555417771e-03
  -9.50691853145622239873e-03
  +4.86501133024677939048e-05
  -9.78533659553557436106e-03
  -9.91500529733724093873e-03
  -1.00446739992037098466e-02
  -1.01743427011369829555e-02
  -1.03040114031393501004e-02
  -1.04336801052047484228e-02
  -1.05633488073381826000e-02
  -1.06930175095389257828e-02
  -1.08226862118077048203e-02
  +5.46173714173249242460e-05
  -1.09660599765128898703e-02
  -1.11113792371420796318e-02
  -1.12566984978352130353e-02
  -1.14020177585967708717e-02
  -1.15473370194230286895e-02
  -1.16926562803152805925e-02
  -1.18379755412775840989e-02
  -1.19832948023011372218e-02
  -1.21286140633962667701e-02
</dep>
<dep IC.I vce ib>
  +0.00000000000000000000e+00
  +3.09908535306537788621e-12
  +5.85285799738143599681e-12
  +8.68939214296102339859e-12
  +1.16016721615378655745e-11
  +1.45885878328825947230e-11
  +1.76478886891470845096e-11
  +2.07798702549210292683e-11
  +2.39836619103032759820e-11
  +2.72586859683273437648e-11
  -6.17179365565529380010e-06
  +1.25869187124393847217e-03
  +1.27536229826000473836e-03
  +1.29203272534445814078e-03
  +1.30870315250077137899e-03
  +1.32537357972725960281e-03
  +1.34204400702548709914e-03
  +1.35871443439414458544e-03
  +1.37538486182986843288e-03
  +1.39205528934254331268e-03
  -1.23173145507791113352e-05
  +2.50649272445453968200e-03
  +2.53969524439946357439e-03
  +2.57289776441265881021e-03
  +2.60610028449637272374e-03
  +2.63930280465053852812e-03
  +2.67250532487197474049e-03
  +2.70570784516700789737e-03
  +2.73891036552940426996e-03
  +2.77211288596319535560e-03
  -1.84367705050820845578e-05
  +3.74393750639557664622e-03
  +3.79353713602035604036e-03
  +3.84313676571392936338e-03
  +3.89273639547513478423e-03
  +3.94233602530939808428e-03
  +3.99193565521121541961e-03
  +4.04153528518414947857e-03
  +4.09113491522125356098e-03
  +4.14073454533253441923e-03
  -2.45303650072821411918e-05
  +4.97132949853055887413e-03
  +5.03719446975636579722e-03
  +5.10305944105287137558e-03
  +5.16892441241510128963e-03
  +5.23478938384723362087e-03
  +5.30065435535210030538e-03
  +5.36651932692224029747e-03
  +5.43238429856030945880e-03
  +5.49824927026959595772e-03
  -3.05982989032942132024e-05
  +6.18893086805233534620e-03
  +6.27093250233283754785e-03
  +6.35293413668070860306e-03
  +6.43493577109492242289e-03
  +6.51693740558224182680e-03
  +6.59893904013255511165e-03
  +6.68094067475702955983e-03
  +6.76294230944473814815e-03
  +6.84494394420204037288e-03
  -3.66407708269931653780e-05
  +7.39698299035783032873e-03
  +7.49499557980335892604e-03
  +7.59300816931647234997e-03
  +7.69102075889359533545e-03
  +7.78903334854075084237e-03
  +7.88704593825508351590e-03
  +7.98505852803757520952e-03
  +8.08307111788748519632e-03
  +8.18108370780425142588e-03
  -4.26579773925659516687e-05
  +8.59571297107295656525e-03
  +8.70961366588716978665e-03
  +8.82351436076712902778e-03
  +8.93741505571427584387e-03
  +9.05131575072769950507e-03
  +9.16521644581122854611e-03
  +9.27911714095910888922e-03
  +9.39301783617555417771e-03
  +9.50691853145622239873e-03
  -4.86501133024677939048e-05
  +9.78533659553557436106e-03
  +9.91500529733724093873e-03
  +1.00446739992037098466e-02
  +1.01743427011369829555e-02
  +1.03040114031393501004e-02
  +1.04336801052047484228e-02
  +1.05633488073381826000e-02
  +1.06930175095389257828e-02
  +1.08226862118077048203e-02
  -5.46173714173249242460e-05
  +1.09660599765128898703e-02
  +1.11113792371420796318e-02
  +1.12566984978352130353e-02
  +1.14020177585967708717e-02
  +1.15473370194230286895e-02
  +1.16926562803152805925e-02
  +1.18379755412775840989e-02
  +1.19832948023011372218e-02
  +1.21286140633962667701e-02
</dep>
<dep _net1.V vce ib>
  +0.00000000000000000000e+00
  +1.47862982536260567645e-01
  +1.63966975541590287424e-01
  +1.73852703840601890972e-01
  +1.80999102734108047175e-01
  +1.86598291336659533046e-01
  +1.91201218834477104647e-01
  +1.95109199409258915470e-01
  +1.98503835655749111266e-01
  +2.01504985640539036051e-01
  +5.51800063066260726430e-01
  +6.62002591946475704709e-01
  +6.62019262428410693033e-01
  +6.62035932910371660576e-01
  +6.62052603392429550588e-01
  +6.62069273874553165804e-01
  +6.62085944356775590869e-01
  +6.62102614839049530282e-01
  +6.62119285321352890605e-01
  +6.62135955803823672561e-01
  +5.69800268299579637521e-01
  +6.81238710025126481540e-01
  +6.81271912572535276453e-01
  +6.81305115119994697537e-01
  +6.81338317667537163302e-01
  +6.81371520215145687338e-01
  +6.81404722762799175406e-01
  +6.81437925310563796799e-01
  +6.81471127858370384622e-01
  +6.81504330406258573838e-01
  +5.80363231136584944991e-01
  +6.93027306485575644857e-01
  +6.93076906133501036145e-01
  +6.93126505781491486502e-01
  +6.93176105429542221970e-01
  +6.93225705077685772082e-01
  +6.93275304725888164015e-01
  +6.93324904374165829068e-01
  +6.93374504022488791222e-01
  +6.93424103670901459395e-01
  +5.87881187167757168766e-01
  +7.01760919591009280083e-01
  +7.01826784575954931711e-01
  +7.01892649560983072909e-01
  +7.01958514546060174943e-01
  +7.02024379531212550098e-01
  +7.02090244516457628876e-01
  +7.02156109501750669288e-01
  +7.02221974487104771967e-01
  +7.02287839472542252395e-01
  +5.93730615771599246067e-01
  +7.08816290292030304343e-01
  +7.08898291937292590603e-01
  +7.08980293582618270598e-01
  +7.09062295228005123882e-01
  +7.09144296873482349319e-01
  +7.09226298519000875054e-01
  +7.09308300164618654726e-01
  +7.09390301810277512651e-01
  +7.09472303456011199607e-01
  +5.98524637892077771006e-01
  +7.14806780320417112229e-01
  +7.14904792919018206021e-01
  +7.15002805517685802172e-01
  +7.15100818116405023694e-01
  +7.15198830715201405717e-01
  +7.15296843314065289299e-01
  +7.15394855912997229552e-01
  +7.15492868511996893410e-01
  +7.15590881111057619535e-01
  +6.02590311180478011011e-01
  +7.20059673851769055375e-01
  +7.20173574554427764483e-01
  +7.20287475257149423236e-01
  +7.20401375959937695370e-01
  +7.20515276662789472262e-01
  +7.20629177365716189207e-01
  +7.20743078068703968420e-01
  +7.20856978771763134972e-01
  +7.20970879474879589033e-01
  +6.06122860137174535033e-01
  +7.24770410596210501453e-01
  +7.24900079304876543418e-01
  +7.25029748013602537426e-01
  +7.25159416722396032995e-01
  +7.25289085431265467818e-01
  +7.25418754140187638235e-01
  +7.25548422849180862926e-01
  +7.25678091558241922243e-01
  +7.25807760267375368102e-01
  +6.09248208766585253038e-01
  +7.29065120100892416488e-01
  +7.29210439367621088280e-01
  +7.29355758634408268826e-01
  +7.29501077901269057158e-01
  +7.29646397168191240823e-01
  +7.29791716435179704803e-01
  +7.29937035702243885993e-01
  +7.30082354969360136643e-01
  +7.30227674236558765841e-01
</dep>
<dep _net2.V vce ib>
  +0.00000000000000000000e+00
  +1.33333333333333325932e+00
  +2.66666666666666651864e+00
  +4.00000000000000000000e+00
  +5.33333333333333303727e+00
  +6.66666666666666607455e+00
  +8.00000000000000000000e+00
  +9.33333333333333214910e+00
  +1.06666666666666660745e+01
  +1.20000000000000000000e+01
  +0.00000000000000000000e+00
  +1.33333333333333325932e+00
  +2.66666666666666651864e+00
  +4.00000000000000000000e+00
  +5.33333333333333303727e+00
  +6.66666666666666607455e+00
  +8.00000000000000000000e+00
  +9.33333333333333214910e+00
  +1.06666666666666660745e+01
  +1.20000000000000000000e+01
  +0.00000000000000000000e+00
  +1.33333333333333325932e+00
  +2.66666666666666651864e+00
  +4.00000000000000000000e+00
  +5.33333333333333303727e+00
  +6.66666666666666607455e+00
  +8.00000000000000000000e+00
  +9.33333333333333214910e+00
  +1.06666666666666660745e+01
  +1.20000000000000000000e+01
  +0.00000000000000000000e+00
  +1.33333333333333325932e+00
  +2.66666666666666651864e+00
  +4.00000000000000000000e+00
  +5.33333333333333303727e+00
  +6.66666666666666607455e+00
  +8.00000000000000000000e+00
  +9.33333333333333214910e+00
  +1.06666666666666660745e+01
  +1.20000000000000000000e+01
  +0.00000000000000000000e+00
  +1.33333333333333325932e+00
  +2.66666666666666651864e+00
  +4.00000000000000000000e+00
  +5.33333333333333303727e+00
  +6.66666666666666607455e+00
  +8.00000000000000000000e+00
  +9.33333333333333214910e+00
  +1.06666666666666660745e+01
  +1.20000000000000000000e+01
  +0.00000000000000000000e+00
  +1.33333333333333325932e+00
  +2.66666666666666651864e+00
  +4.00000000000000000000e+00
  +5.33333333333333303727e+00
  +6.66666666666666607455e+00
  +8.00000000000000000000e+00
  +9.33333333333333214910e+00
  +1.06666666666666660745e+01
  +1.20000000000000000000e+01
  +0.00000000000000000000e+00
  +1.33333333333333325932e+00
  +2.66666666666666651864e+00
  +4.00000000000000000000e+00
  +5.33333333333333303727e+00
  +6.66666666666666607455e+00
  +8.00000000000000000000e+00
  +9.33333333333333214910e+00
  +1.06666666666666660745e+01
  +1.20000000000000000000e+01
  +0.00000000000000000000e+00
  +1.33333333333333325932e+00
  +2.66666666666666651864e+00
  +4.00000000000000000000e+00
  +5.33333333333333303727e+00
  +6.66666666666666607455e+00
  +8.00000000000000000000e+00
  +9.33333333333333214910e+00
  +1.06666666666666660745e+01
  +1.20000000000000000000e+01
  +0.00000000000000000000e+00
  +1.33333333333333325932e+00
  +2.66666666666666651864e+00
  +4.00000000000000000000e+00
  +5.33333333333333303727e+00
  +6.66666666666666607455e+00
  +8.00000000000000000000e+00
  +9.33333333333333214910e+00
  +1.06666666666666660745e+01
  +1.20000000000000000000e+01
  +0.00000000000000000000e+00
  +1.33333333333333325932e+00
  +2.66666666666666651864e+00
  +4.00000000000000000000e+00
  +5.33333333333333303727e+00
  +6.66666666666666607455e+00
  +8.00000000000000000000e+00
  +9.33333333333333214910e+00
  +1.06666666666666660745e+01
  +1.20000000000000000000e+01
</dep>
<dep _net0.V vce ib>
  +0.00000000000000000000e+00
  +1.33333333333333325932e+00
  +2.66666666666666651864e+00
  +4.00000000000000000000e+00
  +5.33333333333333303727e+00
  +6.66666666666666607455e+00
  +8.00000000000000000000e+00
  +9.33333333333333214910e+00
  +1.06666666666666660745e+01
  +1.20000000000000000000e+01
  +0.00000000000000000000e+00
  +1.33333333333333325932e+00
  +2.66666666666666651864e+00
  +4.00000000000000000000e+00
  +5.33333333333333303727e+00
  +6.66666666666666607455e+00
  +8.00000000000000000000e+00
  +9.33333333333333214910e+00
  +1.06666666666666660745e+01
  +1.20000000000000000000e+01
  +0.00000000000000000000e+00
  +1.33333333333333325932e+00
  +2.66666666666666651864e+00
  +4.00000000000000000000e+00
  +5.33333333333333303727e+00
  +6.66666666666666607455e+00
  +8.00000000000000000000e+00
  +9.33333333333333214910e+00
  +1.06666666666666660745e+01
  +1.20000000000000000000e+01
  +0.00000000000000000000e+00
  +1.33333333333333325932e+00
  +2.66666666666666651864e+00
  +4.00000000000000000000e+00
  +5.33333333333333303727e+00
  +6.66666666666666607455e+00
  +8.00000000000000000000e+00
  +9.33333333333333214910e+00
