<Qucs Dataset 0.0.20>
<indep vin 10>
  +1.09000000000000007994e+00
  +2.30222222222222239196e+00
  +3.51444444444444492603e+00
  +4.72666666666666657193e+00
  +5.93888888888888910600e+00
  +7.15111111111111164007e+00
  +8.36333333333333328596e+00
  +9.57555555555555670821e+00
  +1.07877777777777783541e+01
  +1.20000000000000000000e+01
</indep>
<indep ib 20>
  +0.00000000000000000000e+00
  +3.76842105263157881028e-07
  +7.53684210526315762055e-07
  +1.13052631578947353720e-06
  +1.50736842105263152411e-06
  +1.88421052631578951102e-06
  +2.26105263157894707441e-06
  +2.63789473684210506131e-06
  +3.01473684210526304822e-06
  +3.39157894736842103513e-06
  +3.76842105263157902203e-06
  +4.14526315789473700894e-06
  +4.52210526315789414881e-06
  +4.89894736842105213572e-06
  +5.27578947368421012263e-06
  +5.65263157894736810953e-06
  +6.02947368421052609644e-06
  +6.40631578947368408335e-06
  +6.78315789473684207025e-06
  +7.16000000000000005716e-06
</indep>
<dep ic ib>
  +0.00000000000000000000e+00
  +1.88421052631578942631e-05
  +3.76842105263157885263e-05
  +5.65263157894736794013e-05
  +7.53684210526315770525e-05
  +9.42105263157894747038e-05
  +1.13052631578947358803e-04
  +1.31894736842105256454e-04
  +1.50736842105263154105e-04
  +1.69578947368421051756e-04
  +1.88421052631578949408e-04
  +2.07263157894736847059e-04
  +2.26105263157894717605e-04
  +2.44947368421052588151e-04
  +2.63789473684210512908e-04
  +2.82631578947368383454e-04
  +3.01473684210526308210e-04
  +3.20315789473684178756e-04
  +3.39157894736842103513e-04
  +3.58000000000000028269e-04
</dep>
<dep vout.V vin ib>
  +1.09000000000000007994e+00
  +2.30222222222222239196e+00
  +3.51444444444444492603e+00
  +4.72666666666666657193e+00
  +5.93888888888888910600e+00
  +7.15111111111111164007e+00
  +8.36333333333333328596e+00
  +9.57555555555555670821e+00
  +1.07877777777777783541e+01
  +1.20000000000000000000e+01
  +1.09000000000000007994e+00
  +2.30222222222222239196e+00
  +3.51444444444444492603e+00
  +4.72666666666666657193e+00
  +5.93888888888888910600e+00
  +7.15111111111111164007e+00
  +8.36333333333333328596e+00
  +9.57555555555555670821e+00
  +1.07877777777777783541e+01
  +1.20000000000000000000e+01
  +1.09000000000000007994e+00
  +2.30222222222222239196e+00
  +3.51444444444444492603e+00
  +4.72666666666666657193e+00
  +5.93888888888888910600e+00
  +7.15111111111111164007e+00
  +8.36333333333333328596e+00
  +9.57555555555555670821e+00
  +1.07877777777777783541e+01
  +1.20000000000000000000e+01
  +1.09000000000000007994e+00
  +2.30222222222222239196e+00
  +3.51444444444444492603e+00
  +4.72666666666666657193e+00
  +5.93888888888888910600e+00
  +7.15111111111111164007e+00
  +8.36333333333333328596e+00
  +9.57555555555555670821e+00
  +1.07877777777777783541e+01
  +1.20000000000000000000e+01
  +1.09000000000000007994e+00
  +2.30222222222222239196e+00
  +3.51444444444444492603e+00
  +4.72666666666666657193e+00
  +5.93888888888888910600e+00
  +7.15111111111111164007e+00
  +8.36333333333333328596e+00
  +9.57555555555555670821e+00
  +1.07877777777777783541e+01
  +1.20000000000000000000e+01
  +1.09000000000000007994e+00
  +2.30222222222222239196e+00
  +3.51444444444444492603e+00
  +4.72666666666666657193e+00
  +5.93888888888888910600e+00
  +7.15111111111111164007e+00
  +8.36333333333333328596e+00
  +9.57555555555555670821e+00
  +1.07877777777777783541e+01
  +1.20000000000000000000e+01
  +1.09000000000000007994e+00
  +2.30222222222222239196e+00
  +3.51444444444444492603e+00
  +4.72666666666666657193e+00
  +5.93888888888888910600e+00
  +7.15111111111111164007e+00
  +8.36333333333333328596e+00
  +9.57555555555555670821e+00
  +1.07877777777777783541e+01
  +1.20000000000000000000e+01
  +1.09000000000000007994e+00
  +2.30222222222222239196e+00
  +3.51444444444444492603e+00
  +4.72666666666666657193e+00
  +5.93888888888888910600e+00
  +7.15111111111111164007e+00
  +8.36333333333333328596e+00
  +9.57555555555555670821e+00
  +1.07877777777777783541e+01
  +1.20000000000000000000e+01
  +1.09000000000000007994e+00
  +2.30222222222222239196e+00
  +3.51444444444444492603e+00
  +4.72666666666666657193e+00
  +5.93888888888888910600e+00
  +7.15111111111111164007e+00
  +8.36333333333333328596e+00
  +9.57555555555555670821e+00
  +1.07877777777777783541e+01
  +1.20000000000000000000e+01
  +1.09000000000000007994e+00
  +2.30222222222222239196e+00
  +3.51444444444444492603e+00
  +4.72666666666666657193e+00
  +5.93888888888888910600e+00
  +7.15111111111111164007e+00
  +8.36333333333333328596e+00
  +9.57555555555555670821e+00
  +1.07877777777777783541e+01
  +1.20000000000000000000e+01
  +1.09000000000000007994e+00
  +2.30222222222222239196e+00
  +3.51444444444444492603e+00
  +4.72666666666666657193e+00
  +5.93888888888888910600e+00
  +7.15111111111111164007e+00
  +8.36333333333333328596e+00
  +9.57555555555555670821e+00
  +1.07877777777777783541e+01
  +1.20000000000000000000e+01
  +1.09000000000000007994e+00
  +2.30222222222222239196e+00
  +3.51444444444444492603e+00
  +4.72666666666666657193e+00
  +5.93888888888888910600e+00
  +7.15111111111111164007e+00
  +8.36333333333333328596e+00
  +9.57555555555555670821e+00
  +1.07877777777777783541e+01
  +1.20000000000000000000e+01
  +1.09000000000000007994e+00
  +2.30222222222222239196e+00
  +3.51444444444444492603e+00
  +4.72666666666666657193e+00
  +5.93888888888888910600e+00
  +7.15111111111111164007e+00
  +8.36333333333333328596e+00
  +9.57555555555555670821e+00
  +1.07877777777777783541e+01
  +1.20000000000000000000e+01
  +1.09000000000000007994e+00
  +2.30222222222222239196e+00
  +3.51444444444444492603e+00
  +4.72666666666666657193e+00
  +5.93888888888888910600e+00
  +7.15111111111111164007e+00
  +8.36333333333333328596e+00
  +9.57555555555555670821e+00
  +1.07877777777777783541e+01
  +1.20000000000000000000e+01
  +1.09000000000000007994e+00
  +2.30222222222222239196e+00
  +3.51444444444444492603e+00
  +4.72666666666666657193e+00
  +5.93888888888888910600e+00
  +7.15111111111111164007e+00
  +8.36333333333333328596e+00
  +9.57555555555555670821e+00
  +1.07877777777777783541e+01
  +1.20000000000000000000e+01
  +1.09000000000000007994e+00
  +2.30222222222222239196e+00
  +3.51444444444444492603e+00
  +4.72666666666666657193e+00
  +5.93888888888888910600e+00
  +7.15111111111111164007e+00
  +8.36333333333333328596e+00
  +9.57555555555555670821e+00
  +1.07877777777777783541e+01
  +1.20000000000000000000e+01
  +1.09000000000000007994e+00
  +2.30222222222222239196e+00
  +3.51444444444444492603e+00
  +4.72666666666666657193e+00
  +5.93888888888888910600e+00
  +7.15111111111111164007e+00
  +8.36333333333333328596e+00
  +9.57555555555555670821e+00
  +1.07877777777777783541e+01
  +1.20000000000000000000e+01
  +1.09000000000000007994e+00
  +2.30222222222222239196e+00
  +3.51444444444444492603e+00
  +4.72666666666666657193e+00
  +5.93888888888888910600e+00
  +7.15111111111111164007e+00
  +8.36333333333333328596e+00
  +9.57555555555555670821e+00
  +1.07877777777777783541e+01
  +1.20000000000000000000e+01
  +1.09000000000000007994e+00
  +2.30222222222222239196e+00
  +3.51444444444444492603e+00
  +4.72666666666666657193e+00
  +5.93888888888888910600e+00
  +7.15111111111111164007e+00
  +8.36333333333333328596e+00
  +9.57555555555555670821e+00
  +1.07877777777777783541e+01
  +1.20000000000000000000e+01
  +1.09000000000000007994e+00
  +2.30222222222222239196e+00
  +3.51444444444444492603e+00
  +4.72666666666666657193e+00
  +5.93888888888888910600e+00
  +7.15111111111111164007e+00
  +8.36333333333333328596e+00
  +9.57555555555555670821e+00
  +1.07877777777777783541e+01
  +1.20000000000000000000e+01
</dep>
<dep V1.I vin ib>
  -2.60679683981834285049e-12
  -5.09111827058940394155e-12
  -7.64746179443278451940e-12
  -1.02676510626356135793e-11
  -1.29493740281446927819e-11
  -1.56918564618761100506e-11
  -1.84944476204338273721e-11
  -2.13559797788579553488e-11
  -2.42780300372771714785e-11
  -2.72589292169692390785e-11
  -7.56702567287315206335e-05
  -7.65829720763350142894e-05
  -7.74956874834786899747e-05
  -7.84084029474100971868e-05
  -7.93211184698958349454e-05
  -8.02338340525879156534e-05
  -8.11465496921608066445e-05
  -8.20592653928726983989e-05
  -8.29719811495160730142e-05
  -8.38846969673814440690e-05
  -1.51160782886321617057e-04
  -1.52984375231759534225e-04
  -1.54807967636026532323e-04
  -1.56631560099457141930e-04
  -1.58455152618850987969e-04
  -1.60278745197952362644e-04
  -1.62102337838192141770e-04
  -1.63925930533797599301e-04
  -1.65749523288328116759e-04
  -1.67573116100457254101e-04
  -2.26488914997159912317e-04
  -2.29221554861586384591e-04
  -2.31954194290017080707e-04
  -2.34686833779729160437e-04
  -2.37419473320513396654e-04
  -2.40152112927795709446e-04
  -2.42884752587551537139e-04
  -2.45617392305160040390e-04
  -2.48350032082233129673e-04
  -2.51082671921693434576e-04
  -3.01658731437502096017e-04
  -3.05298594034956278717e-04
  -3.08938456364390697049e-04
  -3.12578318752951755596e-04
  -3.16218181196439526194e-04
  -3.19858043701503312346e-04
  -3.23497906266219793607e-04
  -3.27137768887400710860e-04
  -3.30777631565007466507e-04
  -3.34417494303534186973e-04
  -3.76672424832482765494e-04
  -3.81217691891874027339e-04
  -3.85762958828250247020e-04
  -3.90308225820376684511e-04
  -3.94853492872256268444e-04
  -3.99398759973864845001e-04
  -4.03944027137693832674e-04
  -4.08489294363505520136e-04
  -4.13034561643839837498e-04
  -4.17579828981162856812e-04
  -4.51531485407484685108e-04
  -4.56980345056674374001e-04
  -4.62429204097465531686e-04
  -4.67878063193784374686e-04
  -4.73326922347551675568e-04
  -4.78775781555942274523e-04
  -4.84224640825179166760e-04
  -4.89673500154002888825e-04
  -4.95122359535786634409e-04
  -5.00571218981955942846e-04
  -5.26237048528585592624e-04
  -5.32587707170913029868e-04
  -5.38938351583135417076e-04
  -5.45288996066355157247e-04
  -5.51639640600871321123e-04
  -5.57990285187726694355e-04
  -5.64340929843929156422e-04
  -5.70691574547323903291e-04
  -5.77042219314605046333e-04
  -5.83392864136131642991e-04
  -6.00789806808657003354e-04
  -6.08040737512449127808e-04
  -6.15291366334767223650e-04
  -6.22541995221364088432e-04
  -6.29792624160385380860e-04
  -6.37043253161213569695e-04
  -6.44293882212795539048e-04
  -6.51544511333464171875e-04
  -6.58795140497476605472e-04
  -6.66045769729605775279e-04
  -6.75185265465530438586e-04
  -6.83340273964305397469e-04
  -6.91489091944485221100e-04
  -6.99637909987288995894e-04
  -7.07786728084531645971e-04
  -7.15935546234972735626e-04
  -7.24084364450087569071e-04
  -7.32233182721577771299e-04
  -7.40382001049286891936e-04
  -7.48530819428185750786e-04
  -7.49317899445785641846e-04
  -7.58487073098817435497e-04
  -7.67532290685818212837e-04
  -7.76577508332860588607e-04
  -7.85622726039693570002e-04
  -7.94667943801629283671e-04
  -8.03713161619334839209e-04
  -8.12758379495033501591e-04
  -8.21803597424003895618e-04
  -8.30848815411080478775e-04
  -8.21288210647382554107e-04
  -8.33481834092913943454e-04
  -8.43421667419425730161e-04
  -8.53361500792158790205e-04
  -8.63301334229306469720e-04
  -8.73241167720727033165e-04
  -8.83181001273408922483e-04
  -8.93120834879699405061e-04
  -9.03060668542551197094e-04
  -9.13000502260250933889e-04
  -8.76593939869841948416e-04
  -9.08325213905776746373e-04
  -9.19157884729716878613e-04
  -9.29990555610258435790e-04
  -9.40823226558324429529e-04
  -9.51655897551148240512e-04
  -9.62488568609443768086e-04
  -9.73321239714222186980e-04
  -9.84153910887439458549e-04
  -9.94986582113267532118e-04
  -9.05086446501173315718e-04
  -9.83017837290937196437e-04
  -9.94741573025408531636e-04
  -1.00646530881443410123e-03
  -1.01818904466618423595e-03
  -1.02991278056929974963e-03
  -1.04163651653583436835e-03
  -1.05336025255175764863e-03
  -1.06508398862191944363e-03
  -1.07680772476260316894e-03
  -9.20515830270756231848e-04
  -1.05756030384443174344e-03
  -1.07017333748806288754e-03
  -1.08278637119464432766e-03
  -1.09539940495255536806e-03
  -1.10801243876970244469e-03
  -1.12062547264196819136e-03
  -1.13323850657512186467e-03
  -1.14585154055505257335e-03
  -1.15846457460368245165e-03
  -9.30477172585119564723e-04
  -1.13195319292911733902e-03
  -1.14545376306369453209e-03
  -1.15895433325381301722e-03
  -1.17245490350581082345e-03
  -1.18595547380835825493e-03
  -1.19945604417838794752e-03
  -1.21295661459776445146e-03
  -1.22645718507169909292e-03
  -1.23995775560016194793e-03
  -9.37659895191383127404e-04
  -1.20619706730751632962e-03
  -1.22058341807267166194e-03
  -1.23496976889545667655e-03
  -1.24935611977107291146e-03
  -1.26374247070353972096e-03
  -1.27812882169341330077e-03
  -1.29251517273159827887e-03
  -1.30690152383479028450e-03
  -1.32128787500320225498e-03
  -9.43200516798612417606e-04
  -1.28029247594528333351e-03
  -1.29556285699598924994e-03
  -1.31083323810679422752e-03
  -1.32610361927336449332e-03
  -1.34137400049265994445e-03
  -1.35664438177442278795e-03
  -1.37191476310020922698e-03
  -1.38718514448963486409e-03
  -1.40245552593784746087e-03
  -9.47667604956999444325e-04
  -1.35423995601231545588e-03
  -1.37039262252740376598e-03
  -1.38654528909188073764e-03
  -1.40269795572350820453e-03
  -1.41885062240284035018e-03
  -1.43500328914229128945e-03
  -1.45115595593085355136e-03
  -1.46730862278030655885e-03
  -1.48346128968531365197e-03
  -9.51381979461709929857e-04
  -1.42804003419596940196e-03
  -1.44507324721182051942e-03
  -1.46210645989595347700e-03
  -1.47913967263064798606e-03
  -1.49617288541329523932e-03
  -1.51320609827053473469e-03
  -1.53023931117307154630e-03
  -1.54727252413375086781e-03
  -1.56430573714644348751e-03
</dep>
<dep IC.I vin ib>
  +2.60679683981834285049e-12
  +5.09111827058940394155e-12
  +7.64746179443278451940e-12
  +1.02676510626356135793e-11
  +1.29493740281446927819e-11
  +1.56918564618761100506e-11
  +1.84944476204338273721e-11
  +2.13559797788579553488e-11
  +2.42780300372771714785e-11
  +2.72589292169692390785e-11
  +7.56702567287315206335e-05
  +7.65829720763350142894e-05
  +7.74956874834786899747e-05
  +7.84084029474100971868e-05
  +7.93211184698958349454e-05
  +8.02338340525879156534e-05
  +8.11465496921608066445e-05
  +8.20592653928726983989e-05
  +8.29719811495160730142e-05
  +8.38846969673814440690e-05
  +1.51160782886321617057e-04
  +1.52984375231759534225e-04
  +1.54807967636026532323e-04
  +1.56631560099457141930e-04
  +1.58455152618850987969e-04
  +1.60278745197952362644e-04
  +1.62102337838192141770e-04
  +1.63925930533797599301e-04
  +1.65749523288328116759e-04
  +1.67573116100457254101e-04
  +2.26488914997159912317e-04
  +2.29221554861586384591e-04
  +2.31954194290017080707e-04
  +2.34686833779729160437e-04
  +2.37419473320513396654e-04
  +2.40152112927795709446e-04
  +2.42884752587551537139e-04
  +2.45617392305160040390e-04
  +2.48350032082233129673e-04
  +2.51082671921693434576e-04
  +3.01658731437502096017e-04
  +3.05298594034956278717e-04
  +3.08938456364390697049e-04
  +3.12578318752951755596e-04
  +3.16218181196439526194e-04
  +3.19858043701503312346e-04
  +3.23497906266219793607e-04
  +3.27137768887400710860e-04
  +3.30777631565007466507e-04
  +3.34417494303534186973e-04
  +3.76672424832482765494e-04
  +3.81217691891874027339e-04
  +3.85762958828250247020e-04
  +3.90308225820376684511e-04
  +3.94853492872256268444e-04
  +3.99398759973864845001e-04
  +4.03944027137693832674e-04
  +4.08489294363505520136e-04
  +4.13034561643839837498e-04
  +4.17579828981162856812e-04
  +4.51531485407484685108e-04
  +4.56980345056674374001e-04
  +4.62429204097465531686e-04
  +4.67878063193784374686e-04
  +4.73326922347551675568e-04
  +4.78775781555942274523e-04
  +4.84224640825179166760e-04
  +4.89673500154002888825e-04
  +4.95122359535786634409e-04
  +5.00571218981955942846e-04
  +5.26237048528585592624e-04
  +5.32587707170913029868e-04
  +5.38938351583135417076e-04
  +5.45288996066355157247e-04
  +5.51639640600871321123e-04
  +5.57990285187726694355e-04
  +5.64340929843929156422e-04
  +5.70691574547323903291e-04
  +5.77042219314605046333e-04
  +5.83392864136131642991e-04
  +6.00789806808657003354e-04
  +6.08040737512449127808e-04
  +6.15291366334767223650e-04
  +6.22541995221364088432e-04
  +6.29792624160385380860e-04
  +6.37043253161213569695e-04
  +6.44293882212795539048e-04
  +6.51544511333464171875e-04
  +6.58795140497476605472e-04
  +6.66045769729605775279e-04
  +6.75185265465530438586e-04
  +6.83340273964305397469e-04
  +6.91489091944485221100e-04
  +6.99637909987288995894e-04
  +7.07786728084531645971e-04
  +7.15935546234972735626e-04
  +7.24084364450087569071e-04
  +7.32233182721577771299e-04
  +7.40382001049286891936e-04
  +7.48530819428185750786e-04
  +7.49317899445785641846e-04
  +7.58487073098817435497e-04
  +7.67532290685818212837e-04
  +7.76577508332860588607e-04
  +7.85622726039693570002e-04
  +7.94667943801629283671e-04
  +8.03713161619334839209e-04
  +8.12758379495033501591e-04
  +8.21803597424003895618e-04
  +8.30848815411080478775e-04
  +8.21288210647382554107e-04
  +8.33481834092913943454e-04
  +8.43421667419425730161e-04
  +8.53361500792158790205e-04
  +8.63301334229306469720e-04
  +8.73241167720727033165e-04
  +8.83181001273408922483e-04
  +8.93120834879699405061e-04
  +9.03060668542551197094e-04
  +9.13000502260250933889e-04
  +8.76593939869841948416e-04
  +9.08325213905776746373e-04
  +9.19157884729716878613e-04
  +9.29990555610258435790e-04
  +9.40823226558324429529e-04
  +9.51655897551148240512e-04
  +9.62488568609443768086e-04
  +9.73321239714222186980e-04
  +9.84153910887439458549e-04
  +9.94986582113267532118e-04
  +9.05086446501173315718e-04
  +9.83017837290937196437e-04
  +9.94741573025408531636e-04
  +1.00646530881443410123e-03
  +1.01818904466618423595e-03
  +1.02991278056929974963e-03
  +1.04163651653583436835e-03
  +1.05336025255175764863e-03
  +1.06508398862191944363e-03
  +1.07680772476260316894e-03
  +9.20515830270756231848e-04
  +1.05756030384443174344e-03
  +1.07017333748806288754e-03
  +1.08278637119464432766e-03
  +1.09539940495255536806e-03
  +1.10801243876970244469e-03
  +1.12062547264196819136e-03
  +1.13323850657512186467e-03
  +1.14585154055505257335e-03
  +1.15846457460368245165e-03
  +9.30477172585119564723e-04
  +1.13195319292911733902e-03
  +1.14545376306369453209e-03
  +1.15895433325381301722e-03
  +1.17245490350581082345e-03
  +1.18595547380835825493e-03
  +1.19945604417838794752e-03
  +1.21295661459776445146e-03
  +1.22645718507169909292e-03
  +1.23995775560016194793e-03
  +9.37659895191383127404e-04
  +1.20619706730751632962e-03
  +1.22058341807267166194e-03
  +1.23496976889545667655e-03
  +1.24935611977107291146e-03
  +1.26374247070353972096e-03
  +1.27812882169341330077e-03
  +1.29251517273159827887e-03
  +1.30690152383479028450e-03
  +1.32128787500320225498e-03
  +9.43200516798612417606e-04
  +1.28029247594528333351e-03
  +1.29556285699598924994e-03
  +1.31083323810679422752e-03
  +1.32610361927336449332e-03
  +1.34137400049265994445e-03
  +1.35664438177442278795e-03
  +1.37191476310020922698e-03
  +1.38718514448963486409e-03
  +1.40245552593784746087e-03
  +9.47667604956999444325e-04
  +1.35423995601231545588e-03
  +1.37039262252740376598e-03
  +1.38654528909188073764e-03
  +1.40269795572350820453e-03
  +1.41885062240284035018e-03
  +1.43500328914229128945e-03
  +1.45115595593085355136e-03
  +1.46730862278030655885e-03
  +1.48346128968531365197e-03
  +9.51381979461709929857e-04
  +1.42804003419596940196e-03
  +1.44507324721182051942e-03
  +1.46210645989595347700e-03
  +1.47913967263064798606e-03
  +1.49617288541329523932e-03
  +1.51320609827053473469e-03
  +1.53023931117307154630e-03
  +1.54727252413375086781e-03
  +1.56430573714644348751e-03
</dep>
<dep _net1.V vin ib>
  +1.43451490171203954738e-01
  +1.60453077316451142575e-01
  +1.70670660256065254146e-01
  +1.77989068913968845331e-01
  +1.83692625850959301292e-01
  +1.88366466882484512313e-01
  +1.92325890525146370180e-01
  +1.95759305870864819266e-01
  +1.98791380014255253394e-01
  +2.01505231304997173281e-01
