<Qucs Dataset 0.0.20>
<indep vin 10>
  +4.00000000000000000000e+00
  +4.88888888888888928363e+00
  +5.77777777777777767909e+00
  +6.66666666666666607455e+00
  +7.55555555555555535818e+00
  +8.44444444444444464182e+00
  +9.33333333333333214910e+00
  +1.02222222222222214327e+01
  +1.11111111111111107164e+01
  +1.20000000000000000000e+01
</indep>
<indep ib 25>
  +0.00000000000000000000e+00
  +1.87583333333333330227e-06
  +3.75166666666666660454e-06
  +5.62749999999999990681e-06
  +7.50333333333333320908e-06
  +9.37916666666666651135e-06
  +1.12549999999999998136e-05
  +1.31308333333333331159e-05
  +1.50066666666666664182e-05
  +1.68824999999999997204e-05
  +1.87583333333333330227e-05
  +2.06341666666666663250e-05
  +2.25099999999999996272e-05
  +2.43858333333333329295e-05
  +2.62616666666666662318e-05
  +2.81374999999999995341e-05
  +3.00133333333333328363e-05
  +3.18891666666666661386e-05
  +3.37649999999999994409e-05
  +3.56408333333333327431e-05
  +3.75166666666666660454e-05
  +3.93924999999999993477e-05
  +4.12683333333333326499e-05
  +4.31441666666666659522e-05
  +4.50199999999999992545e-05
</indep>
<dep ic vin ib>
  +8.68913493778645145092e-12
  +1.06228261762923340955e-11
  +1.25892261507889746672e-11
  +1.45885699506679175251e-11
  +1.66200374039703979207e-11
  +1.86839462587650824665e-11
  +2.07792055332581941093e-11
  +2.29072975307684616649e-11
  +2.50667472833580050071e-11
  +2.72589292169692390785e-11
  +3.85869428730137710264e-04
  +3.89187602587349524598e-04
  +3.92505776477537619059e-04
  +3.95823950398244432582e-04
  +3.99142124349141397700e-04
  +4.02460298335479847633e-04
  +4.05778472342734617458e-04
  +4.09096646391901607506e-04
  +4.12414820470734320556e-04
  +4.15732994575314775219e-04
  +7.67761798603795557472e-04
  +7.74365209567275700024e-04
  +7.80968620560310218016e-04
  +7.87572031589043176740e-04
  +7.94175442643680977971e-04
  +8.00778853736901306132e-04
  +8.07382264847161714577e-04
  +8.13985676004443971243e-04
  +8.20589087180316717300e-04
  +8.27192498393698413296e-04
  +1.14582198027823401257e-03
  +1.15567821137543369318e-03
  +1.16553444249888928097e-03
  +1.17539067366043657736e-03
  +1.18524690484475255306e-03
  +1.19510313606063290660e-03
  +1.20495936731034101845e-03
  +1.21481559858136801446e-03
  +1.22467182988900916835e-03
  +1.23452806122669833493e-03
  +1.52012726910045136396e-03
  +1.53320441014476670748e-03
  +1.54628155120598888284e-03
  +1.55935869231404056895e-03
  +1.57243583344783143148e-03
  +1.58551297460533856601e-03
  +1.59859011580015830147e-03
  +1.61166725701370090740e-03
  +1.62474439826324032650e-03
  +1.63782153953973886630e-03
  +1.89074423579465981417e-03
  +1.90701087262907013030e-03
  +1.92327750949507908507e-03
  +1.93954414638716071684e-03
  +1.95581078331612647284e-03
  +1.97207742026547349495e-03
  +1.98834405724552642364e-03
  +2.00461069426828217277e-03
  +2.02087733131118933716e-03
  +2.03714396837086824180e-03
  +2.25773468827863369596e-03
  +2.27715989232512910564e-03
  +2.29658509639816231507e-03
  +2.31601030048709556619e-03
  +2.33543550461398369961e-03
  +2.35486070877676239438e-03
  +2.37428591296106380332e-03
  +2.39371111717768744742e-03
  +2.41313632142403991510e-03
  +2.43256152568993751217e-03
  +2.62115751417389903147e-03
  +2.64371083220267966835e-03
  +2.66626415024917356664e-03
  +2.68881746833932221488e-03
  +2.71137078644192444296e-03
  +2.73392410458488197694e-03
  +2.75647742275053750025e-03
  +2.77903074095128257634e-03
  +2.80158405917618324316e-03
  +2.82413737742361059535e-03
  +2.98106946262818427867e-03
  +3.00672090687695119093e-03
  +3.03237235113666030520e-03
  +3.05802379542641136062e-03
  +3.08367523974173484216e-03
  +3.10932668410403073231e-03
  +3.13497812847552369264e-03
  +3.16062957287718956575e-03
  +3.18628101731085328074e-03
  +3.21193246177315294351e-03
  +3.33752553918850638354e-03
  +3.36624558274196310562e-03
  +3.39496562122893657046e-03
  +3.42368565974091780893e-03
  +3.45240569827406180645e-03
  +3.48112573683753484186e-03
  +3.50984577542472805239e-03
  +3.53856581404692711532e-03
  +3.56728585271277182089e-03
  +3.59600589138654985061e-03
  +3.68595202035456280532e-03
  +3.72233881143598779526e-03
  +3.75409835851320651881e-03
  +3.78585790562655562924e-03
  +3.81761745277822131181e-03
  +3.84937699994843942827e-03
  +3.88113654713659198339e-03
  +3.91289609435099480783e-03
  +3.94465564159517112497e-03
  +3.97641518886081464512e-03
  +3.78657851255357605011e-03
  +4.07505318020601366158e-03
  +4.10982358766661011462e-03
  +4.14459399495991677453e-03
  +4.17936440227498727518e-03
  +4.21413480962405922331e-03
  +4.24890521701945869659e-03
  +4.28367562440636583110e-03
  +4.31844603183592634643e-03
  +4.35321643930969802427e-03
  +3.80597367395556131914e-03
  +4.42441882041748595772e-03
  +4.46219306540444719811e-03
  +4.49994611274128538531e-03
  +4.53769916013190607179e-03
  +4.57545220753355613014e-03
  +4.61320525494830682017e-03
  +4.65095830241791727278e-03
  +4.68871134989681283278e-03
  +4.72646439740696030357e-03
  +3.81579040081207873300e-03
  +4.64505808744640827368e-03
  +4.81125735912187567356e-03
  +4.85196524639599623824e-03
  +4.89267313326152957637e-03
  +4.93338102015022754443e-03
  +4.97408890707172653134e-03
  +5.01479679401775190611e-03
  +5.05550468099799556881e-03
  +5.09621256801718203883e-03
  +3.82196535444518509239e-03
  +4.67529730880852315705e-03
  +5.15706583601417255930e-03
  +5.20070124791675598291e-03
  +5.24433658482621745112e-03
  +5.28797192174930170278e-03
  +5.33160725872354555183e-03
  +5.37524259570223029298e-03
  +5.41887793270661236034e-03
  +5.46251326976221994458e-03
  +3.82622086877660574564e-03
  +4.68780117986937212154e-03
  +5.47774367970293128705e-03
  +5.54620288546982167371e-03
  +5.59273868578465463419e-03
  +5.63927448616855734459e-03
  +5.68581028653843828513e-03
  +5.73234608693778437127e-03
  +5.77888188736836588832e-03
  +5.82541768782481386713e-03
  +3.82929171353519086016e-03
  +4.69518184252627410191e-03
  +5.54271429181435112965e-03
  +5.88851788680493700573e-03
  +5.93792755902650386951e-03
  +5.98733723098296422016e-03
  +6.03674690295663823186e-03
  +6.08615657490915468869e-03
  +6.13556624694590324598e-03
  +6.18497591898987519182e-03
  +3.83155889505216052521e-03
  +4.70012210859520589840e-03
  +5.55967771044661544788e-03
  +6.22754521826810684276e-03
  +6.27995031781785305325e-03
  +6.33220765646891510514e-03
  +6.38446499513082785238e-03
  +6.43672233380401977165e-03
  +6.48897967252479949268e-03
  +6.54123701124594350564e-03
  +3.83324527304390637664e-03
  +4.70363539969059427093e-03
  +5.56874108421522712176e-03
  +6.40480494665977232588e-03
  +6.61885310020919864077e-03
  +6.67393228020999110250e-03
  +6.72901145995734480121e-03
  +6.78409063973287387861e-03
  +6.83916981950954527142e-03
  +6.89424899932379858097e-03
  +3.83449240405325623982e-03
  +4.70621290129004388181e-03
  +5.57456194124730970707e-03
  +6.43062298934021780994e-03
  +6.95468069641827155158e-03
  +7.01255666885146691780e-03
  +7.07043223587856123347e-03
  +7.12830780293688577587e-03
  +7.18618337000033035461e-03
  +7.24405893710157715998e-03
  +3.83539577852552888981e-03
  +4.70812968946000137693e-03
  +5.57861703249262069759e-03
  +6.44219998287352824118e-03
  +7.24775811509050741505e-03
  +7.34812546720391319977e-03
  +7.40877233224148789431e-03
  +7.46941919731543366862e-03
  +7.53006606243454904015e-03
  +7.59071292756337973051e-03
  +3.83602284023329322821e-03
  +4.70955523494432249515e-03
  +5.58156204919300208411e-03
  +6.44919760536258497574e-03
  +7.29935562752211369170e-03
  +7.68068242438605611883e-03
  +7.74407585669542944395e-03
  +7.80746928802901300759e-03
  +7.87086271935413805956e-03
  +7.93425615071526556255e-03
  +3.83642298309346072710e-03
  +4.71060129704124405658e-03
  +5.58374500980414988083e-03
  +6.45393401500140694721e-03
  +7.31509087094986496652e-03
  +8.00985087884987720375e-03
  +8.07638604095235919378e-03
  +8.14250165722521339340e-03
  +8.20861727349050766811e-03
  +8.27473288979318870318e-03
  +3.83663346016170419758e-03
  +4.71134543968362851096e-03
  +5.58537263802781798472e-03
  +6.45732352743984272525e-03
  +7.32374083171352836807e-03
  +8.16281700689549388761e-03
  +8.40574526472034552760e-03
  +8.47455902866929393358e-03
  +8.54337279234600351085e-03
  +8.61218655605494945449e-03
  +3.83668305852431432146e-03
  +4.71184368142043338151e-03
  +5.58657769022688922150e-03
  +6.45981966857424230039e-03
  +7.32936070413772299686e-03
  +8.18674853596852193649e-03
  +8.73219414666222444599e-03
  +8.80368329089965470646e-03
  +8.87517150164534966705e-03
  +8.94665971245973273840e-03
</dep>
<dep vout.V vin ib>
  +4.00000000000000000000e+00
  +4.88888888888888928363e+00
  +5.77777777777777767909e+00
  +6.66666666666666607455e+00
  +7.55555555555555535818e+00
  +8.44444444444444464182e+00
  +9.33333333333333214910e+00
  +1.02222222222222214327e+01
  +1.11111111111111107164e+01
  +1.20000000000000000000e+01
  +4.00000000000000000000e+00
  +4.88888888888888928363e+00
  +5.77777777777777767909e+00
  +6.66666666666666607455e+00
  +7.55555555555555535818e+00
  +8.44444444444444464182e+00
  +9.33333333333333214910e+00
  +1.02222222222222214327e+01
  +1.11111111111111107164e+01
  +1.20000000000000000000e+01
  +4.00000000000000000000e+00
  +4.88888888888888928363e+00
  +5.77777777777777767909e+00
  +6.66666666666666607455e+00
  +7.55555555555555535818e+00
  +8.44444444444444464182e+00
  +9.33333333333333214910e+00
  +1.02222222222222214327e+01
  +1.11111111111111107164e+01
  +1.20000000000000000000e+01
  +4.00000000000000000000e+00
  +4.88888888888888928363e+00
  +5.77777777777777767909e+00
  +6.66666666666666607455e+00
  +7.55555555555555535818e+00
  +8.44444444444444464182e+00
  +9.33333333333333214910e+00
  +1.02222222222222214327e+01
  +1.11111111111111107164e+01
  +1.20000000000000000000e+01
  +4.00000000000000000000e+00
  +4.88888888888888928363e+00
  +5.77777777777777767909e+00
  +6.66666666666666607455e+00
  +7.55555555555555535818e+00
  +8.44444444444444464182e+00
  +9.33333333333333214910e+00
  +1.02222222222222214327e+01
  +1.11111111111111107164e+01
  +1.20000000000000000000e+01
  +4.00000000000000000000e+00
  +4.88888888888888928363e+00
  +5.77777777777777767909e+00
  +6.66666666666666607455e+00
  +7.55555555555555535818e+00
  +8.44444444444444464182e+00
  +9.33333333333333214910e+00
  +1.02222222222222214327e+01
  +1.11111111111111107164e+01
  +1.20000000000000000000e+01
  +4.00000000000000000000e+00
  +4.88888888888888928363e+00
  +5.77777777777777767909e+00
  +6.66666666666666607455e+00
  +7.55555555555555535818e+00
  +8.44444444444444464182e+00
  +9.33333333333333214910e+00
  +1.02222222222222214327e+01
  +1.11111111111111107164e+01
  +1.20000000000000000000e+01
  +4.00000000000000000000e+00
  +4.88888888888888928363e+00
  +5.77777777777777767909e+00
  +6.66666666666666607455e+00
  +7.55555555555555535818e+00
  +8.44444444444444464182e+00
  +9.33333333333333214910e+00
  +1.02222222222222214327e+01
  +1.11111111111111107164e+01
  +1.20000000000000000000e+01
  +4.00000000000000000000e+00
  +4.88888888888888928363e+00
  +5.77777777777777767909e+00
  +6.66666666666666607455e+00
  +7.55555555555555535818e+00
  +8.44444444444444464182e+00
  +9.33333333333333214910e+00
  +1.02222222222222214327e+01
  +1.11111111111111107164e+01
  +1.20000000000000000000e+01
  +4.00000000000000000000e+00
  +4.88888888888888928363e+00
  +5.77777777777777767909e+00
  +6.66666666666666607455e+00
  +7.55555555555555535818e+00
  +8.44444444444444464182e+00
  +9.33333333333333214910e+00
  +1.02222222222222214327e+01
  +1.11111111111111107164e+01
  +1.20000000000000000000e+01
  +4.00000000000000000000e+00
  +4.88888888888888928363e+00
  +5.77777777777777767909e+00
  +6.66666666666666607455e+00
  +7.55555555555555535818e+00
  +8.44444444444444464182e+00
  +9.33333333333333214910e+00
  +1.02222222222222214327e+01
  +1.11111111111111107164e+01
  +1.20000000000000000000e+01
  +4.00000000000000000000e+00
  +4.88888888888888928363e+00
  +5.77777777777777767909e+00
  +6.66666666666666607455e+00
  +7.55555555555555535818e+00
  +8.44444444444444464182e+00
  +9.33333333333333214910e+00
  +1.02222222222222214327e+01
  +1.11111111111111107164e+01
  +1.20000000000000000000e+01
  +4.00000000000000000000e+00
  +4.88888888888888928363e+00
  +5.77777777777777767909e+00
  +6.66666666666666607455e+00
  +7.55555555555555535818e+00
  +8.44444444444444464182e+00
  +9.33333333333333214910e+00
  +1.02222222222222214327e+01
  +1.11111111111111107164e+01
  +1.20000000000000000000e+01
  +4.00000000000000000000e+00
  +4.88888888888888928363e+00
  +5.77777777777777767909e+00
  +6.66666666666666607455e+00
  +7.55555555555555535818e+00
  +8.44444444444444464182e+00
  +9.33333333333333214910e+00
  +1.02222222222222214327e+01
  +1.11111111111111107164e+01
  +1.20000000000000000000e+01
  +4.00000000000000000000e+00
  +4.88888888888888928363e+00
  +5.77777777777777767909e+00
  +6.66666666666666607455e+00
  +7.55555555555555535818e+00
  +8.44444444444444464182e+00
  +9.33333333333333214910e+00
  +1.02222222222222214327e+01
  +1.11111111111111107164e+01
  +1.20000000000000000000e+01
  +4.00000000000000000000e+00
  +4.88888888888888928363e+00
  +5.77777777777777767909e+00
  +6.66666666666666607455e+00
  +7.55555555555555535818e+00
  +8.44444444444444464182e+00
  +9.33333333333333214910e+00
  +1.02222222222222214327e+01
  +1.11111111111111107164e+01
  +1.20000000000000000000e+01
  +4.00000000000000000000e+00
  +4.88888888888888928363e+00
  +5.77777777777777767909e+00
  +6.66666666666666607455e+00
  +7.55555555555555535818e+00
  +8.44444444444444464182e+00
  +9.33333333333333214910e+00
  +1.02222222222222214327e+01
  +1.11111111111111107164e+01
  +1.20000000000000000000e+01
  +4.00000000000000000000e+00
  +4.88888888888888928363e+00
  +5.77777777777777767909e+00
  +6.66666666666666607455e+00
  +7.55555555555555535818e+00
  +8.44444444444444464182e+00
  +9.33333333333333214910e+00
  +1.02222222222222214327e+01
  +1.11111111111111107164e+01
  +1.20000000000000000000e+01
  +4.00000000000000000000e+00
  +4.88888888888888928363e+00
  +5.77777777777777767909e+00
  +6.66666666666666607455e+00
  +7.55555555555555535818e+00
  +8.44444444444444464182e+00
  +9.33333333333333214910e+00
  +1.02222222222222214327e+01
  +1.11111111111111107164e+01
  +1.20000000000000000000e+01
  +4.00000000000000000000e+00
  +4.88888888888888928363e+00
  +5.77777777777777767909e+00
  +6.66666666666666607455e+00
  +7.55555555555555535818e+00
  +8.44444444444444464182e+00
  +9.33333333333333214910e+00
  +1.02222222222222214327e+01
  +1.11111111111111107164e+01
  +1.20000000000000000000e+01
  +4.00000000000000000000e+00
  +4.88888888888888928363e+00
  +5.77777777777777767909e+00
  +6.66666666666666607455e+00
  +7.55555555555555535818e+00
  +8.44444444444444464182e+00
  +9.33333333333333214910e+00
  +1.02222222222222214327e+01
  +1.11111111111111107164e+01
  +1.20000000000000000000e+01
  +4.00000000000000000000e+00
  +4.88888888888888928363e+00
  +5.77777777777777767909e+00
  +6.66666666666666607455e+00
  +7.55555555555555535818e+00
  +8.44444444444444464182e+00
  +9.33333333333333214910e+00
  +1.02222222222222214327e+01
  +1.11111111111111107164e+01
  +1.20000000000000000000e+01
  +4.00000000000000000000e+00
  +4.88888888888888928363e+00
  +5.77777777777777767909e+00
  +6.66666666666666607455e+00
  +7.55555555555555535818e+00
  +8.44444444444444464182e+00
  +9.33333333333333214910e+00
  +1.02222222222222214327e+01
  +1.11111111111111107164e+01
  +1.20000000000000000000e+01
  +4.00000000000000000000e+00
  +4.88888888888888928363e+00
  +5.77777777777777767909e+00
  +6.66666666666666607455e+00
  +7.55555555555555535818e+00
  +8.44444444444444464182e+00
  +9.33333333333333214910e+00
  +1.02222222222222214327e+01
  +1.11111111111111107164e+01
  +1.20000000000000000000e+01
  +4.00000000000000000000e+00
  +4.88888888888888928363e+00
  +5.77777777777777767909e+00
  +6.66666666666666607455e+00
  +7.55555555555555535818e+00
  +8.44444444444444464182e+00
  +9.33333333333333214910e+00
  +1.02222222222222214327e+01
  +1.11111111111111107164e+01
  +1.20000000000000000000e+01
</dep>
<dep V1.I vin ib>
  -8.68913493778645145092e-12
  -1.06228261762923340955e-11
  -1.25892261507889746672e-11
  -1.45885699506679175251e-11
  -1.66200374039703979207e-11
  -1.86839462587650824665e-11
  -2.07792055332581941093e-11
  -2.29072975307684616649e-11
  -2.50667472833580050071e-11
  -2.72589292169692390785e-11
  -3.85869428730137710264e-04
  -3.89187602587349524598e-04
  -3.92505776477537619059e-04
  -3.95823950398244432582e-04
  -3.99142124349141397700e-04
  -4.02460298335479847633e-04
  -4.05778472342734617458e-04
  -4.09096646391901607506e-04
  -4.12414820470734320556e-04
  -4.15732994575314775219e-04
  -7.67761798603795557472e-04
  -7.74365209567275700024e-04
  -7.80968620560310218016e-04
  -7.87572031589043176740e-04
  -7.94175442643680977971e-04
  -8.00778853736901306132e-04
  -8.07382264847161714577e-04
  -8.13985676004443971243e-04
  -8.20589087180316717300e-04
  -8.27192498393698413296e-04
  -1.14582198027823401257e-03
  -1.15567821137543369318e-03
  -1.16553444249888928097e-03
  -1.17539067366043657736e-03
  -1.18524690484475255306e-03
  -1.19510313606063290660e-03
  -1.20495936731034101845e-03
  -1.21481559858136801446e-03
  -1.22467182988900916835e-03
  -1.23452806122669833493e-03
  -1.52012726910045136396e-03
  -1.53320441014476670748e-03
  -1.54628155120598888284e-03
  -1.55935869231404056895e-03
  -1.57243583344783143148e-03
  -1.58551297460533856601e-03
  -1.59859011580015830147e-03
  -1.61166725701370090740e-03
  -1.62474439826324032650e-03
  -1.63782153953973886630e-03
  -1.89074423579465981417e-03
  -1.90701087262907013030e-03
  -1.92327750949507908507e-03
  -1.93954414638716071684e-03
  -1.95581078331612647284e-03
  -1.97207742026547349495e-03
  -1.98834405724552642364e-03
  -2.00461069426828217277e-03
  -2.02087733131118933716e-03
  -2.03714396837086824180e-03
  -2.25773468827863369596e-03
  -2.27715989232512910564e-03
  -2.29658509639816231507e-03
  -2.31601030048709556619e-03
  -2.33543550461398369961e-03
  -2.35486070877676239438e-03
  -2.37428591296106380332e-03
  -2.39371111717768744742e-03
  -2.41313632142403991510e-03
  -2.43256152568993751217e-03
  -2.62115751417389903147e-03
  -2.64371083220267966835e-03
  -2.66626415024917356664e-03
  -2.68881746833932221488e-03
  -2.71137078644192444296e-03
  -2.73392410458488197694e-03
  -2.75647742275053750025e-03
  -2.77903074095128257634e-03
  -2.80158405917618324316e-03
  -2.82413737742361059535e-03
  -2.98106946262818427867e-03
  -3.00672090687695119093e-03
  -3.03237235113666030520e-03
  -3.05802379542641136062e-03
  -3.08367523974173484216e-03
  -3.10932668410403073231e-03
  -3.13497812847552369264e-03
  -3.16062957287718956575e-03
  -3.18628101731085328074e-03
  -3.21193246177315294351e-03
  -3.33752553918850638354e-03
  -3.36624558274196310562e-03
  -3.39496562122893657046e-03
  -3.42368565974091780893e-03
  -3.45240569827406180645e-03
  -3.48112573683753484186e-03
  -3.50984577542472805239e-03
  -3.53856581404692711532e-03
  -3.56728585271277182089e-03
  -3.59600589138654985061e-03
  -3.68595202035456280532e-03
  -3.72233881143598779526e-03
  -3.75409835851320651881e-03
  -3.78585790562655562924e-03
  -3.81761745277822131181e-03
  -3.84937699994843942827e-03
  -3.88113654713659198339e-03
  -3.91289609435099480783e-03
  -3.94465564159517112497e-03
  -3.97641518886081464512e-03
  -3.78657851255357605011e-03
  -4.07505318020601366158e-03
  -4.10982358766661011462e-03
  -4.14459399495991677453e-03
  -4.17936440227498727518e-03
  -4.21413480962405922331e-03
  -4.24890521701945869659e-03
  -4.28367562440636583110e-03
  -4.31844603183592634643e-03
  -4.35321643930969802427e-03
  -3.80597367395556131914e-03
  -4.42441882041748595772e-03
  -4.46219306540444719811e-03
  -4.49994611274128538531e-03
  -4.53769916013190607179e-03
  -4.57545220753355613014e-03
  -4.61320525494830682017e-03
